! VERSION = 6.00
!Measured by: Marcus Mueller on Thu Nov 15 11:45:14 WEST 2018
!TECHNOLOGY: Teledyne
!WAFER: w096
!DIE Nr.: y
!TRANSISTOR Name: 0p25x10x1_2
!Emitter size: 0.25x10
!Configuration: CBE
!Temperature: 298
BEGIN_HEADER
 ICCAP_INPUTS
  dummy1     V  B GROUND GND 0 CON        0
  dummy2     V  C GROUND GND 0 CON        0
  freq       F  LIN        1    1e+009     5e+010     50   1e+009    
 ICCAP_OUTPUTS
  S          S  B C GROUND NWA B
 ICCAP_VALUES
  MEAS_BY "Marcus Mueller"
  TECH "Teledyne"
  WAFER "w096"
  DIE "y"
  TRAN "0p25x10x1_2"
  WIDTH "0.25"
  LENGTH "10"
  CONFIG "CBE"
  TEMP "298"
END_HEADER

BEGIN_DB
 ICCAP_VAR dummy1     0              
 ICCAP_VAR dummy2     0              

 #freq            R:S(1,1)        I:S(1,1)        R:S(1,2)        I:S(1,2)        R:S(2,1)        I:S(2,1)        R:S(2,2)        I:S(2,2)       
  1e+009          1.00004         -0.0160968      -5.79231e-005   -5.01649e-005   0.000259958     0.000236786     1.04645         -0.00587877    
  2e+009          0.999685        -0.0327604      -8.63727e-005   0.000295429     -0.000197926    0.000494699     1.01574         -0.00178635    
  3e+009          1.00003         -0.0483494      -7.87981e-005   0.000530092     -0.000110375    0.000524744     0.995645        -0.0442025     
  4e+009          0.998921        -0.0653607      -2.97987e-005   0.000588937     0.000164871     0.00054724      1.00704         -0.0828504     
  5e+009          0.998128        -0.0817125      -0.000130774    0.000786576     7.01497e-006    0.000870403     1.00796         -0.0689543     
  6e+009          0.997431        -0.0969103      -0.000118408    0.000980935     -0.00020553     0.00100384      0.995418        -0.0929772     
  7e+009          0.995498        -0.114385       7.65465e-005    0.00117561      -3.25898e-005   0.00094818      1.00012         -0.140384      
  8e+009          0.994294        -0.129609       9.34002e-005    0.00130139      -3.23013e-005   0.00124038      1.00427         -0.12093       
  9e+009          0.993103        -0.14905        0.000183459     0.00128176      0.000231661     0.00144288      0.993423        -0.141041      
  1e+010          0.991548        -0.161458       0.000261289     0.00119819      0.000359984     0.00131897      0.991588        -0.181514      
  1.1e+010        0.986036        -0.181628       0.00026264      0.0009671       0.000190099     0.00108914      0.995439        -0.168969      
  1.2e+010        0.987726        -0.196847       3.74512e-005    0.000531158     8.35717e-007    0.000481325     0.987245        -0.192562      
  1.3e+010        0.982317        -0.214582       -0.000710847    -0.000608749    -0.000793878    -0.000859095    0.980323        -0.239958      
  1.4e+010        0.970149        -0.233575       -0.00434277     -0.00142754     -0.00333778     -0.00114526     0.980807        -0.222671      
  1.5e+010        0.965517        -0.25615        -0.00799548     0.00455413      -0.00833155     0.004503        0.964248        -0.243393      
  1.6e+010        0.968384        -0.252938       -0.00355168     0.00928394      -0.00312291     0.00968857      0.963084        -0.288086      
  1.7e+010        0.963414        -0.275147       -0.000132937    0.00977708      -8.32388e-005   0.0102385       0.970935        -0.26001       
  1.8e+010        0.960354        -0.294269       0.00208608      0.00833193      0.00212076      0.00817718      0.954333        -0.298768      
  1.9e+010        0.957761        -0.319558       0.00317474      0.00753926      0.00271352      0.00775954      0.953973        -0.333201      
  2e+010          0.944378        -0.33313        0.00346715      0.00649413      0.00290246      0.00725853      0.953979        -0.320167      
  2.1e+010        0.940031        -0.360435       0.00465293      0.00603638      0.00426712      0.00589475      0.936996        -0.350472      
  2.2e+010        0.939084        -0.367691       0.00433195      0.00581106      0.00450631      0.00502626      0.927526        -0.395126      
  2.3e+010        0.924497        -0.384027       0.00486451      0.00465963      0.00488158      0.00440064      0.931023        -0.37918       
  2.4e+010        0.920379        -0.402509       0.00504353      0.00448946      0.00521441      0.0045966       0.92601         -0.381685      
  2.5e+010        0.923713        -0.407972       0.00570982      0.00358615      0.00561998      0.0037838       0.902968        -0.44663       
  2.6e+010        0.890824        -0.442996       0.0040965       0.00173706      0.00425085      0.00211346      0.913837        -0.423426      
  2.7e+010        0.907109        -0.437092       0.00384602      0.00236276      0.00395639      0.00274426      0.90046         -0.430795      
  2.8e+010        0.8897          -0.470475       0.00428143      0.00030744      0.00491787      0.00146644      0.886366        -0.478416      
  2.9e+010        0.881996        -0.46931        0.00341177      0.000414304     0.00354808      0.000512392     0.879997        -0.471169      
  3e+010          0.858166        -0.508707       0.00112403      -0.00142004     0.00148703      -0.0011255      0.867609        -0.482783      
  3.1e+010        0.857735        -0.497282       -0.00696925     0.00704663      -0.00703192     0.00813222      0.853181        -0.504554      
  3.2e+010        0.849867        -0.515596       0.00652022      0.00341319      0.00631743      0.00260326      0.831656        -0.529335      
  3.3e+010        0.84333         -0.530847       0.00466598      0.000748996     0.00479144      -0.000294083    0.84472         -0.515948      
  3.4e+010        0.825281        -0.570987       0.0036632       -0.00157992     0.00496454      -0.000939369    0.822           -0.56142       
  3.5e+010        0.82289         -0.552875       0.00237405      -0.00188199     0.00281495      -0.00294288     0.809106        -0.576733      
  3.6e+010        0.813535        -0.579525       0.00215529      -0.00350916     0.00299754      -0.00358077     0.805146        -0.56199       
  3.7e+010        0.793944        -0.583515       -0.000973307    -0.00411637     -0.000681908    -0.00360058     0.768596        -0.619569      
  3.8e+010        0.769214        -0.606427       -0.00287794     -0.00786085     -0.00326956     -0.00655084     0.777356        -0.598097      
  3.9e+010        0.769568        -0.605466       -0.00783628     -0.00486279     -0.00735217     -0.00581171     0.754414        -0.600654      
  4e+010          0.764176        -0.625032       -0.0096373      -0.00598642     -0.0100752      -0.00735969     0.751201        -0.635318      
  4.1e+010        0.710002        -0.644889       -0.016567       -0.00585568     -0.0169643      -0.00479327     0.711051        -0.64981       
  4.2e+010        0.719513        -0.635616       -0.0216763      -0.00437046     -0.0229896      -0.00372938     0.696374        -0.627952      
  4.3e+010        0.680966        -0.665612       -0.0306272      0.00690419      -0.0308819      0.00339393      0.667482        -0.660624      
  4.4e+010        0.701072        -0.632804       -0.0373695      0.0159253       -0.0349961      0.0115177       0.637437        -0.677978      
  4.5e+010        0.611141        -0.656482       -0.0362493      0.0510776       -0.0371761      0.0503145       0.656874        -0.603064      
  4.6e+010        0.72269         -0.608841       0.00255508      0.0635998       0.000960026     0.0668864       0.634696        -0.657617      
  4.7e+010        0.679227        -0.672997       0.0216513       0.0418795       0.0196672       0.0393812       0.667892        -0.681217      
  4.8e+010        0.719153        -0.668755       0.0290271       0.0288108       0.0303419       0.0336097       0.647508        -0.652035      
  4.9e+010        0.62556         -0.758013       0.0299263       0.0110757       0.0282734       0.00899945      0.66025         -0.711549      
  5e+010          0.669885        -0.714142       0.0209024       0.00240548      0.0211433       0.00369142      0.660672        -0.739343      
END_DB

