! VERSION = 6.00
!Measured by: Marcus Mueller on Fri Nov 16 13:11:12 WEST 2018
!TECHNOLOGY: Teledyne
!WAFER: w033
!DIE Nr.: x
!TRANSISTOR Name: 0p25x10x1_full
!Emitter size: 0.25x10
!Configuration: CBE
!Temperature: 348
BEGIN_HEADER
 ICCAP_INPUTS
  dummy1     V  B GROUND GND 0 CON        0
  dummy2     V  C GROUND GND 0 CON        0
  freq       F  LIN        1    1e+009     5e+010     50   1e+009    
 ICCAP_OUTPUTS
  S          S  B C GROUND NWA B
 ICCAP_VALUES
  MEAS_BY "Marcus Mueller"
  TECH "Teledyne"
  WAFER "w033"
  DIE "x"
  TRAN "0p25x10x1_full"
  WIDTH "0.25"
  LENGTH "10"
  CONFIG "CBE"
  TEMP "348"
END_HEADER

BEGIN_DB
 ICCAP_VAR dummy1     0              
 ICCAP_VAR dummy2     0              

 #freq            R:S(1,1)        I:S(1,1)        R:S(1,2)        I:S(1,2)        R:S(2,1)        I:S(2,1)        R:S(2,2)        I:S(2,2)       
  1e+009          1.00007         -0.0142021      -0.0001701      0.0001733       9.21984e-005    0.00014829      0.883703        0.899638       
  2e+009          0.999379        -0.0280015      -0.000181392    0.00038911      -7.27149e-005   0.000440623     0.649051        0.65786        
  3e+009          0.999402        -0.0415573      -0.000134722    0.000513301     -2.41238e-005   0.000548221     0.982415        -0.0440947     
  4e+009          0.998317        -0.0542551      -8.2391e-005    0.000516244     -0.000248961    0.000642783     1.01079         0.209102       
  5e+009          0.997986        -0.0685059      -0.000200654    0.000785721     -0.000411769    0.000760277     0.951358        0.227146       
  6e+009          0.996682        -0.0827003      -7.82861e-005   0.00108237      -0.000189376    0.00116074      0.995168        -0.0782868     
  7e+009          0.99649         -0.096853       -8.27241e-005   0.00107989      5.78652e-006    0.00126123      1.0121          0.0842307      
  8e+009          0.994711        -0.110654       -6.02222e-005   0.00131466      -0.000193948    0.00139815      0.994651        0.0844765      
  9e+009          0.994028        -0.123992       0.000137475     0.00134512      6.38211e-006    0.00151533      0.996093        -0.122076      
  1e+010          0.992389        -0.143597       0.000247505     0.00122325      0.000346021     0.00127251      1.0172          -0.0342764     
  1.1e+010        0.989654        -0.15328        0.000211032     0.00100234      0.000200572     0.00116664      0.998621        -0.0430542     
  1.2e+010        0.991225        -0.170647       1.24131e-005    0.000462983     -7.27876e-005   0.00046424      0.987538        -0.161031      
  1.3e+010        0.982732        -0.186474       -0.00074354     -0.000678755    -0.000825562    -0.000872738    1.00384         -0.0941658     
  1.4e+010        0.978345        -0.197942       -0.0048068      -0.00152534     -0.00466051     -0.00148098     0.98977         -0.110989      
  1.5e+010        0.97246         -0.200027       -0.00760153     0.00432332      -0.00748252     0.00487356      0.973891        -0.201754      
  1.6e+010        0.971535        -0.221021       -0.0043532      0.00875833      -0.00409343     0.00841669      0.986231        -0.130064      
  1.7e+010        0.973709        -0.235434       -0.000951151    0.0095687       -0.00164561     0.0103379       0.981521        -0.153779      
  1.8e+010        0.972143        -0.246642       0.00172827      0.00818969      0.00162285      0.00846145      0.975881        -0.231813      
  1.9e+010        0.963287        -0.259916       0.00198137      0.00721663      0.00180589      0.00855517      0.982068        -0.17534       
  2e+010          0.970847        -0.274162       0.00272008      0.00687092      0.00285161      0.00722697      0.977507        -0.182624      
  2.1e+010        0.958272        -0.28535        0.00388561      0.00676763      0.00356517      0.00726156      0.965144        -0.271719      
  2.2e+010        0.956416        -0.302023       0.00379076      0.00596626      0.00345092      0.00609134      0.979136        -0.232321      
  2.3e+010        0.955804        -0.315548       0.00476865      0.00549712      0.0047227       0.00585381      0.974638        -0.238088      
  2.4e+010        0.945531        -0.331367       0.00452         0.00465896      0.00452269      0.00467169      0.950138        -0.326622      
  2.5e+010        0.936019        -0.354924       0.00519626      0.0043303       0.00584837      0.00494705      0.960543        -0.283081      
  2.6e+010        0.942783        -0.35734        0.00375748      0.00290503      0.0036696       0.00215063      0.955523        -0.29846       
  2.7e+010        0.922515        -0.386677       0.00362341      0.0026062       0.00420976      0.00253964      0.936842        -0.363172      
  2.8e+010        0.918339        -0.383839       0.00388032      0.000790411     0.00386698      0.000121938     0.946336        -0.328618      
  2.9e+010        0.910732        -0.413034       0.0033432       0.000789349     0.00427291      0.000792824     0.942474        -0.338824      
  3e+010          0.905758        -0.407747       0.000750715     -0.00141151     0.00127904      -0.001232       0.915915        -0.401891      
  3.1e+010        0.885905        -0.423849       -0.00527006     0.00862989      -0.00523331     0.00879132      0.91651         -0.375746      
  3.2e+010        0.891027        -0.441595       0.00524481      0.00353185      0.00581647      0.00507303      0.928665        -0.361611      
  3.3e+010        0.886742        -0.452023       0.00418923      0.000573968     0.00427285      0.000554225     0.895558        -0.440448      
  3.4e+010        0.874535        -0.458166       0.00364632      -0.00141076     0.00373017      -0.00313172     0.908806        -0.408575      
  3.5e+010        0.868145        -0.490221       0.00248707      -0.00124038     0.00303735      -0.00128599     0.899075        -0.413458      
  3.6e+010        0.846933        -0.505446       0.00210103      -0.00372335     0.00154466      -0.00281651     0.873896        -0.477055      
  3.7e+010        0.842612        -0.504617       0.00014329      -0.00343042     -0.000161155    -0.004279       0.879667        -0.442861      
  3.8e+010        0.830497        -0.505645       -0.00258829     -0.00868155     -0.00375186     -0.00909476     0.867727        -0.460605      
  3.9e+010        0.822217        -0.525837       -0.00664935     -0.00532978     -0.00660736     -0.0047888      0.846597        -0.501212      
  4e+010          0.805107        -0.541079       -0.00849227     -0.00737532     -0.0103535      -0.00727715     0.84501         -0.499535      
  4.1e+010        0.811801        -0.533642       -0.0151236      -0.00994833     -0.0157059      -0.0113318      0.841476        -0.489647      
  4.2e+010        0.774812        -0.551509       -0.0218839      -0.0066464      -0.0233772      -0.0076873      0.795397        -0.534219      
  4.3e+010        0.772974        -0.527039       -0.0298073      0.00210524      -0.0337831      0.000354796     0.816979        -0.493227      
  4.4e+010        0.740465        -0.567315       -0.0407093      0.0100301       -0.0432114      0.0123907       0.789004        -0.48106       
  4.5e+010        0.760369        -0.478407       -0.0397043      0.0462228       -0.041831       0.0461845       0.76397         -0.516904      
  4.6e+010        0.76165         -0.534368       -0.00430911     0.0607345       -0.00337903     0.0624149       0.819118        -0.424238      
  4.7e+010        0.811496        -0.528593       0.0113745       0.0444061       0.014543        0.0464281       0.809022        -0.462566      
  4.8e+010        0.776081        -0.583115       0.0233112       0.0306234       0.0246891       0.0316949       0.83507         -0.516298      
  4.9e+010        0.801737        -0.537374       0.0237886       0.0172879       0.0229965       0.0197376       0.814957        -0.528448      
  5e+010          0.762088        -0.618246       0.0169104       0.0069693       0.019808        0.00662113      0.806274        -0.542978      
END_DB

