! VERSION = 6.00
!Measured by: Marcus Mueller on Thu Nov 15 11:57:11 WEST 2018
!TECHNOLOGY: Teledyne
!WAFER: w096
!DIE Nr.: y
!TRANSISTOR Name: 0p25x10x1_2
!Emitter size: 0.25x10
!Configuration: CBE
!Temperature: 298
BEGIN_HEADER
 ICCAP_INPUTS
  dummy1     V  B GROUND GND 0 CON        0
  dummy2     V  C GROUND GND 0 CON        0
  freq       F  LIN        1    1e+009     5e+010     50   1e+009    
 ICCAP_OUTPUTS
  S          S  B C GROUND NWA B
 ICCAP_VALUES
  MEAS_BY "Marcus Mueller"
  TECH "Teledyne"
  WAFER "w096"
  DIE "y"
  TRAN "0p25x10x1_2"
  WIDTH "0.25"
  LENGTH "10"
  CONFIG "CBE"
  TEMP "298"
END_HEADER

BEGIN_DB
 ICCAP_VAR dummy1     0              
 ICCAP_VAR dummy2     0              

 #freq            R:S(1,1)        I:S(1,1)        R:S(1,2)        I:S(1,2)        R:S(2,1)        I:S(2,1)        R:S(2,2)        I:S(2,2)       
  1e+009          -0.993756       0.0190141       0.00012158      6.4992e-005     -9.90014e-005   0.000219458     -0.993376       0.00536698     
  2e+009          -0.991682       0.0365793       -1.28965e-005   0.000225748     -3.04403e-005   5.395e-005      -0.987464       0.0513357      
  3e+009          -0.990918       0.0545917       4.21852e-005    0.00043704      -0.000159819    0.000587856     -1.00228        0.0709437      
  4e+009          -0.989111       0.0711861       -0.000326483    0.000821771     -0.000158279    0.000779638     -0.992361       0.0564908      
  5e+009          -0.987727       0.0883725       -4.05553e-005   0.00112043      0.000166225     0.00136059      -0.986594       0.10455        
  6e+009          -0.984782       0.107563        -3.69132e-005   0.00129035      -8.86111e-005   0.00113323      -0.995411       0.122863       
  7e+009          -0.984071       0.12486         -0.00031115     0.00133889      -0.000267726    0.00128528      -0.986835       0.108803       
  8e+009          -0.980722       0.143372        0.000171472     0.00182066      0.000163638     0.00173447      -0.976844       0.160193       
  9e+009          -0.976977       0.158536        -0.000186649    0.0015698       1.78853e-005    0.00148324      -0.983569       0.174583       
  1e+010          -0.97266        0.183548        -0.000465714    0.00199792      -0.000225882    0.00205169      -0.978204       0.158119       
  1.1e+010        -0.970891       0.195629        -0.000890844    0.00216573      -0.00103036     0.00243809      -0.965057       0.209078       
  1.2e+010        -0.963933       0.213384        -0.00027947     0.00297789      -0.0002839      0.00252921      -0.968453       0.223775       
  1.3e+010        -0.957973       0.232757        -0.000312651    0.00264115      -0.000312753    0.00264511      -0.969376       0.208727       
  1.4e+010        -0.957794       0.248215        -0.00161205     0.00295779      -0.00164587     0.00352683      -0.955756       0.255675       
  1.5e+010        -0.951084       0.254903        -0.00279704     0.0043927       -0.00289723     0.00512862      -0.953733       0.277907       
  1.6e+010        -0.939427       0.288211        -0.00228498     0.00620304      -0.002831       0.00604708      -0.954608       0.254408       
  1.7e+010        -0.941389       0.296028        -0.000306178    0.00569054      -0.000233991    0.00595384      -0.93903        0.303772       
  1.8e+010        -0.935902       0.314392        -0.00020496     0.00624129      -4.1945e-006    0.00677764      -0.94268        0.315477       
  1.9e+010        -0.925265       0.32185         6.62727e-005    0.00619759      2.53432e-005    0.00648493      -0.93513        0.302465       
  2e+010          -0.925115       0.344309        0.000863858     0.00790705      0.000824462     0.00805279      -0.924815       0.336469       
  2.1e+010        -0.916858       0.348965        0.00061702      0.00658815      -0.000174096    0.00609513      -0.923263       0.346018       
  2.2e+010        -0.906681       0.368515        0.00190453      0.00792217      0.00222583      0.00749363      -0.92134        0.343342       
  2.3e+010        -0.906394       0.383381        0.00139547      0.00814851      0.000924931     0.00869737      -0.90875        0.379528       
  2.4e+010        -0.897541       0.397778        0.0032492       0.00788785      0.00241249      0.00645388      -0.896691       0.415433       
  2.5e+010        -0.879138       0.422737        0.00273698      0.00702163      0.00324824      0.00754403      -0.905472       0.38608        
  2.6e+010        -0.890554       0.42481         0.00295626      0.00743615      0.0030467       0.00654561      -0.880488       0.435656       
  2.7e+010        -0.866985       0.464938        0.00375539      0.00716577      0.00306397      0.00677445      -0.878411       0.467224       
  2.8e+010        -0.859614       0.45895         0.00380661      0.00957949      0.00382544      0.00900141      -0.88249        0.434234       
  2.9e+010        -0.85037        0.489696        0.00322307      0.00800541      0.00359824      0.00857848      -0.868388       0.468782       
  3e+010          -0.855665       0.481242        0.00373273      0.0086603       0.00364097      0.00905772      -0.860413       0.493165       
  3.1e+010        -0.829891       0.513096        0.00459481      0.0119549       0.0047311       0.0118117       -0.849877       0.490816       
  3.2e+010        -0.82558        0.522574        0.00794209      0.00786617      0.00860182      0.008019        -0.858322       0.499379       
  3.3e+010        -0.818548       0.541353        0.00715153      0.0062185       0.00652566      0.00641715      -0.828012       0.547643       
  3.4e+010        -0.811873       0.537018        0.0063354       0.00720719      0.00641367      0.00576205      -0.830351       0.527865       
  3.5e+010        -0.798829       0.581079        0.00612202      0.0066178       0.00609625      0.00645765      -0.823221       0.545384       
  3.6e+010        -0.768716       0.588615        0.00531163      0.00706494      0.00714752      0.00700051      -0.803439       0.596121       
  3.7e+010        -0.754677       0.618202        0.00566639      0.00730433      0.00553153      0.00667826      -0.818821       0.562903       
  3.8e+010        -0.775485       0.599201        0.00527074      0.00752775      0.0052597       0.00618614      -0.787282       0.601733       
  3.9e+010        -0.753789       0.629365        0.00690777      0.00745506      0.00647367      0.00604346      -0.781912       0.625428       
  4e+010          -0.735914       0.632192        0.00674993      0.00733957      0.00542126      0.00642584      -0.768031       0.609618       
  4.1e+010        -0.744116       0.645838        0.0070614       0.00758719      0.00723592      0.010075        -0.775356       0.626936       
  4.2e+010        -0.724862       0.657652        0.00681393      0.00838638      0.00744286      0.00657441      -0.751132       0.673085       
  4.3e+010        -0.733846       0.658991        0.00629678      0.00931339      0.00569112      0.010122        -0.748026       0.656309       
  4.4e+010        -0.670929       0.703773        0.00660586      0.00927075      0.00849657      0.0083081       -0.750663       0.660867       
  4.5e+010        -0.73051        0.689998        0.00904244      0.011671        0.00781411      0.011587        -0.691857       0.747994       
  4.6e+010        -0.630328       0.727993        0.016077        0.0122903       0.0158643       0.0121144       -0.731786       0.691274       
  4.7e+010        -0.688761       0.704342        0.0141936       0.00144022      0.0134475       -0.000364724    -0.699734       0.693324       
  4.8e+010        -0.628371       0.737684        0.010248        0.00128391      0.00879067      0.000139808     -0.71052        0.764024       
  4.9e+010        -0.676563       0.732522        0.00837975      0.00512716      0.00895517      0.00543004      -0.687116       0.725258       
  5e+010          -0.631312       0.769922        0.00761729      0.00644158      0.00812899      0.00757348      -0.661178       0.728197       
END_DB

