! VERSION = 6.00
BEGIN_HEADER
 ICCAP_INPUTS
  V_B        V  B GROUND SMU_B 0.1 LIN        1    0          0.04       41   0.001     
  V_C        V  C GROUND SMU_C 0.1 SYNC       1 0 V_B
 ICCAP_OUTPUTS
  I_C        I  C GROUND SMU_C B
  I_B        I  B GROUND SMU_B B
  Rport2     U
  Rport1     U
 ICCAP_VALUES
  MEAS_BY "Paulius Sakalas"
  TECH "IFAG B11 TUD 1811"
  WAFER "ZA928226-05"
  DIE "2"
  TRAN "TAS050CBEBC22"
  WIDTH "0.22"
  LENGTH "5"
  CONFIG "CBEBC"
  TEMP "75"
  SPACER "0.045"
END_HEADER

BEGIN_DB

 #V_B                   V_C                   I_C                   I_B                   R:Rport2(1,1)         I:Rport2(1,1)         R:Rport1(1,1)         I:Rport1(1,1)        
  0                     0                     -0.0012372            -0.00079792           2.5692                0                     2.61358               0                    
  0.001                 0.001                 0.0012256             0.0017032             2.3564                0                     2.38866               0                    
  0.002                 0.002                 0.0034756             0.0039794             2.3416                0                     2.42                  0                    
  0.003                 0.003                 0.0059088             0.0065432             2.4647                0                     2.5472                0                    
  0.004                 0.004                 0.008405              0.0090738             2.3728                0                     2.4089                0                    
  0.005                 0.005                 0.0106544             0.011361              2.2615                0                     2.4121                0                    
  0.006                 0.006                 0.012928              0.013898              2.2458                0                     2.4245                0                    
  0.007                 0.007                 0.015146              0.01621               2.36                  0                     2.4                   0                    
  0.008                 0.008                 0.017648              0.018698              2.482                 0                     2.523                 0                    
  0.009                 0.009                 0.02011               0.021256              2.342                 0                     2.435                 0                    
  0.01                  0.01                  0.022332              0.023568              2.361                 0                     2.434                 0                    
  0.011                 0.011                 0.024832              0.026124              2.486                 0                     2.439                 0                    
  0.012                 0.012                 0.027304              0.028446              2.336                 0                     2.443                 0                    
  0.013                 0.013                 0.029504              0.03101               2.356                 0                     2.425                 0                    
  0.014                 0.014                 0.032016              0.033296              2.377                 0                     2.413                 0                    
  0.015                 0.015                 0.034258              0.035836              2.346                 0                     2.545                 0                    
  0.016                 0.016                 0.036708              0.038386              2.481                 0                     2.408                 0                    
  0.017                 0.017                 0.03922               0.040652              2.376                 0                     2.409                 0                    
  0.018                 0.018                 0.04146               0.043204              2.335                 0                     2.428                 0                    
  0.019                 0.019                 0.04389               0.045508              2.464                 0                     2.42                  0                    
  0.02                  0.02                  0.046388              0.048044              2.372                 0                     2.539                 0                    
  0.021                 0.021                 0.048634              0.050586              2.346                 0                     2.423                 0                    
  0.022                 0.022                 0.05108               0.05289               2.349                 0                     2.413                 0                    
  0.023                 0.023                 0.053332              0.055412              2.371                 0                     2.419                 0                    
  0.024                 0.024                 0.055822              0.057728              2.458                 0                     2.423                 0                    
  0.025                 0.025                 0.058248              0.060258              2.342                 0                     2.53                  0                    
  0.026                 0.026                 0.060506              0.062788              2.374                 0                     2.42                  0                    
  0.027                 0.027                 0.062996              0.065098              2.368                 0                     2.422                 0                    
  0.028                 0.028                 0.065242              0.067632              2.364                 0                     2.403                 0                    
  0.029                 0.029                 0.067724              0.069904              2.48                  0                     2.415                 0                    
  0.03                  0.03                  0.070202              0.072462              2.344                 0                     2.546                 0                    
  0.031                 0.031                 0.072412              0.074996              2.346                 0                     2.412                 0                    
  0.032                 0.032                 0.074894              0.077286              2.48                  0                     2.42                  0                    
  0.033                 0.033                 0.077372              0.079836              2.353                 0                     2.537                 0                    
  0.034                 0.034                 0.0796                0.08236               2.351                 0                     2.396                 0                    
  0.035                 0.035                 0.082074              0.084628              2.36                  0                     2.41                  0                    
  0.036                 0.036                 0.08432               0.08718               2.346                 0                     2.429                 0                    
  0.037                 0.037                 0.086766              0.089486              2.461                 0                     2.403                 0                    
  0.038                 0.038                 0.089242              0.091986              2.359                 0                     2.528                 0                    
  0.039                 0.039                 0.091484              0.094542              2.358                 0                     2.428                 0                    
  0.04                  0.04                  0.093958              0.096842              2.59                  0                     2.172                 0                    
END_DB

