! VERSION = 6.00
BEGIN_HEADER
 ICCAP_INPUTS
  dummy1     V  B GROUND GND 0 CON        0
  dummy2     V  C GROUND GND 0 CON        0
  freq       F  LIN        1    5e+08      6.7e+10    134  5e+08     
 ICCAP_OUTPUTS
  S          S  B C Ground NWA M
 ICCAP_VALUES
  MEAS_BY "Paulius Sakalas"
  TECH "IFAG B11 TUD 1811"
  WAFER "ZA928226-05"
  DIE "2"
  TRAN "TAS050CBEBC22"
  WIDTH "0.22"
  LENGTH "5"
  CONFIG "CBEBC"
  TEMP "75"
  SPACER "0.045"
END_HEADER

BEGIN_DB
 ICCAP_VAR dummy1     0              
 ICCAP_VAR dummy2     0              

 #freq                  R:S(1,1)              I:S(1,1)              R:S(1,2)              I:S(1,2)              R:S(2,1)              I:S(2,1)              R:S(2,2)              I:S(2,2)             
  500000000             -0.980752             0.0112838             0.0010368             -0.000194403          0.00100599            -0.000204382          -0.986432             -0.0289421           
  1000000000            -0.968335             0.0105609             0.000922504           7.80292e-06           0.000874868           1.98908e-05           -0.973395             0.00630199           
  1500000000            -0.969988             0.0130638             0.000911508           0.000160061           0.000874839           0.000172017           -0.97729              0.015691             
  2000000000            -0.971365             0.0161838             0.000767911           0.000483011           0.000735652           0.000523423           -0.977189             0.0168878            
  2500000000            -0.971781             0.0199757             0.000764576           0.000378263           0.000729569           0.000413912           -0.977225             0.021168             
  3000000000            -0.970798             0.0232355             0.000659863           0.000421034           0.000596454           0.000444588           -0.9771               0.0244953            
  3500000000            -0.97041              0.0263092             0.0006121             0.000555362           0.000555836           0.000588659           -0.976823             0.027968             
  4000000000            -0.969663             0.0301448             5.37229e-05           0.000951422           6.19141e-06           0.000965097           -0.975976             0.031633             
  4500000000            -0.970179             0.0340984             0.000643546           0.00113348            0.000615868           0.00117621            -0.977053             0.0357104            
  5000000000            -0.970691             0.0372559             0.000605893           0.00121644            0.000532515           0.00122107            -0.977298             0.0393502            
  5500000000            -0.970561             0.0400963             0.000612919           0.00130486            0.000545248           0.00132304            -0.977586             0.0432937            
  6000000000            -0.969859             0.0447259             0.000526137           0.0012406             0.000440983           0.00125864            -0.976864             0.0480317            
  6500000000            -0.969112             0.0495019             0.000187613           0.00150739            0.000131429           0.00151952            -0.976313             0.0530619            
  7000000000            -0.969405             0.0529405             4.40733e-05           0.00182379            -8.28442e-07          0.00182812            -0.976364             0.0568619            
  7500000000            -0.970167             0.0547523             0.000394416           0.00222447            0.000341438           0.00220004            -0.97671              0.060087             
  8000000000            -0.969997             0.0589357             0.000404281           0.00215332            0.000367617           0.00216221            -0.976469             0.0648862            
  8500000000            -0.969181             0.0646065             0.000321865           0.0020352             0.000244561           0.00202256            -0.975326             0.0700938            
  9000000000            -0.968442             0.0686641             7.21206e-05           0.00208437            5.51064e-05           0.00208176            -0.974465             0.0745287            
  9500000000            -0.968204             0.0701438             1.6669e-05            0.00237166            -2.38046e-05          0.00234024            -0.973791             0.0766444            
  10000000000           -0.967643             0.0726754             -5.83003e-05          0.00261716            -9.02525e-05          0.00256752            -0.973568             0.0801746            
  10500000000           -0.967227             0.0794835             -0.000517668          0.00282963            -0.000520499          0.00277747            -0.973695             0.0877724            
  11000000000           -0.962649             0.0862604             -0.000116054          0.00349909            -0.00012174           0.00344538            -0.970702             0.0926515            
  11500000000           -0.96489              0.0895097             -0.000107443          0.00372592            -0.00011519           0.00364511            -0.97009              0.0952516            
  12000000000           -0.965733             0.0904439             5.24616e-05           0.00404398            4.35017e-05           0.00396222            -0.968187             0.0978627            
  12500000000           -0.964019             0.0926977             0.000415327           0.00391524            0.000416293           0.00380988            -0.96881              0.101053             
  13000000000           -0.963531             0.0978011             0.000197045           0.00370429            0.000184511           0.00358489            -0.968119             0.105264             
  13500000000           -0.963442             0.100047              -0.000206082          0.00357605            -0.00017661           0.00346188            -0.968285             0.106806             
  14000000000           -0.962653             0.0996471             -0.000213138          0.00441252            -0.000165448          0.00428636            -0.967039             0.107052             
  14500000000           -0.96081              0.10139               -0.000295737          0.00420749            -0.000274638          0.00409939            -0.965997             0.109707             
  15000000000           -0.958506             0.10988               -0.00112017           0.00450479            -0.00108837           0.0043762             -0.96375              0.117035             
  15500000000           -0.958879             0.116991              -0.000375645          0.0054926             -0.000386228          0.00534015            -0.963731             0.124003             
  16000000000           -0.960775             0.117838              -0.000255414          0.0054183             -0.000229725          0.00525059            -0.964863             0.12711              
  16500000000           -0.96174              0.115714              -0.000194969          0.00592159            -0.000166247          0.005741              -0.965602             0.126979             
  17000000000           -0.960259             0.11993               -0.000120165          0.00565305            -0.000101512          0.0055059             -0.966513             0.130737             
  17500000000           -0.953886             0.13037               -0.000384852          0.00591044            -0.000373411          0.00576347            -0.965764             0.147897             
  18000000000           -0.955889             0.133323              -0.000393393          0.00633204            -0.00036655           0.00616849            -0.959264             0.142428             
  18500000000           -0.957912             0.134971              0.000126093           0.00627279            0.000132187           0.0061135             -0.961222             0.145164             
  19000000000           -0.957898             0.135001              -0.000279524          0.00648164            -0.000271939          0.0062695             -0.960369             0.146933             
  19500000000           -0.956002             0.139678              -0.000467771          0.00715603            -0.000437563          0.00694757            -0.959185             0.151892             
  20000000000           -0.954006             0.145333              0.000113125           0.00759172            0.000126726           0.00742396            -0.958067             0.155395             
  20500000000           -0.953246             0.148888              0.000400805           0.00728336            0.000383458           0.00713551            -0.956943             0.159317             
  21000000000           -0.951916             0.150662              1.31429e-05           0.0074127             -2.45451e-06          0.00725629            -0.955228             0.163072             
  21500000000           -0.950788             0.156194              -0.00015278           0.0078625             -0.000152773          0.0077225             -0.954024             0.168773             
  22000000000           -0.951131             0.162565              0.000158887           0.00806234            0.000165286           0.00791372            -0.95369              0.174628             
  22500000000           -0.95266              0.16453               0.000324617           0.00823308            0.000288903           0.00807404            -0.952616             0.175572             
  23000000000           -0.952348             0.163576              -0.000182455          0.00813612            -0.000223371          0.00801191            -0.953849             0.173965             
  23500000000           -0.950199             0.165903              0.000421338           0.00943097            0.000368523           0.00927126            -0.952904             0.177175             
  24000000000           -0.947036             0.173022              0.000444773           0.00895307            0.000349716           0.0088128             -0.950607             0.183064             
  24500000000           -0.946842             0.178167              0.000647615           0.00961511            0.000567281           0.0094563             -0.950846             0.18763              
  25000000000           -0.948753             0.178921              0.00106513            0.00932467            0.00095958            0.00918609            -0.95124              0.190321             
  25500000000           -0.947798             0.180738              0.000797972           0.00949726            0.000727182           0.00939651            -0.950057             0.193679             
  26000000000           -0.945384             0.186676              0.00105189            0.00950651            0.000950611           0.00938443            -0.94815              0.199841             
  26500000000           -0.9442               0.192982              0.000563734           0.0101177             0.00049257            0.00997412            -0.947585             0.203941             
  27000000000           -0.945583             0.194887              0.00150924            0.010294              0.00137257            0.0101355             -0.948495             0.205581             
  27500000000           -0.945876             0.194495              0.00118461            0.0104069             0.00111462            0.0102952             -0.946867             0.206286             
  28000000000           -0.941257             0.199381              0.00149496            0.0109942             0.00140258            0.0108409             -0.943578             0.21336              
  28500000000           -0.938097             0.208323              0.0023575             0.0105011             0.00223032            0.0103275             -0.940811             0.221405             
  29000000000           -0.938011             0.212761              0.00183858            0.0102392             0.0017386             0.0100766             -0.941257             0.224584             
  29500000000           -0.939886             0.210003              0.0011984             0.0107976             0.0010704             0.0106548             -0.942747             0.222381             
  30000000000           -0.93969              0.209509              0.0021278             0.0113264             0.00205691            0.0111878             -0.942409             0.224344             
  30500000000           -0.937083             0.216703              0.00220559            0.0109684             0.00215939            0.0108647             -0.938979             0.231799             
  31000000000           -0.935719             0.22576               0.00207376            0.0113606             0.00192679            0.0111731             -0.937449             0.239234             
  31500000000           -0.93708              0.227276              0.00229368            0.0116281             0.0021853             0.0114805             -0.938094             0.240024             
  32000000000           -0.936754             0.225108              0.00230823            0.0117751             0.00218105            0.0115757             -0.938031             0.238566             
  32500000000           -0.932875             0.228043              0.00244475            0.0122897             0.00233785            0.012094              -0.935336             0.241756             
  33000000000           -0.929446             0.235686              0.00326923            0.0117993             0.00315243            0.0116835             -0.932407             0.248493             
  33500000000           -0.929647             0.240448              0.00280424            0.0117623             0.00270333            0.0115607             -0.93157              0.253389             
  34000000000           -0.931555             0.240846              0.00309824            0.0123754             0.00290108            0.0122107             -0.93146              0.257312             
  34500000000           -0.93006              0.243942              0.00350871            0.0122346             0.00337094            0.0120843             -0.929176             0.262223             
  35000000000           -0.926607             0.251447              0.0035443             0.012011              0.00340633            0.0118199             -0.92657              0.268572             
  35500000000           -0.926749             0.256157              0.00340841            0.0122597             0.00332104            0.0120784             -0.927289             0.270264             
  36000000000           -0.929228             0.253878              0.00338992            0.0122451             0.00328941            0.0119853             -0.929435             0.267427             
  36500000000           -0.92814              0.251483              0.00377244            0.0128033             0.00363516            0.0124746             -0.928678             0.266276             
  37000000000           -0.923356             0.256509              0.00393357            0.0123778             0.0037882             0.012159              -0.925898             0.272223             
  37500000000           -0.920944             0.263748              0.00380737            0.012483              0.00364269            0.0122259             -0.922093             0.281141             
  38000000000           -0.922782             0.266434              0.00399693            0.0126819             0.00384661            0.0124723             -0.921258             0.283922             
  38500000000           -0.924551             0.263702              0.00424862            0.0126865             0.00407405            0.0123806             -0.919952             0.282725             
  39000000000           -0.921713             0.267363              0.00422489            0.0129326             0.00405698            0.0127607             -0.917503             0.285989             
  39500000000           -0.916832             0.27834               0.00448408            0.0128281             0.00424394            0.0126167             -0.915371             0.294366             
  40000000000           -0.91653              0.285375              0.00457015            0.0129567             0.00444742            0.0127212             -0.915024             0.300134             
  40500000000           -0.919696             0.283179              0.00435646            0.0129045             0.00422955            0.0126002             -0.916094             0.300931             
  41000000000           -0.919137             0.280111              0.00491603            0.0132074             0.00481261            0.0129589             -0.914682             0.30164              
  41500000000           -0.912883             0.284517              0.00478972            0.0126074             0.00471976            0.0124084             -0.911706             0.307012             
  42000000000           -0.910367             0.291893              0.00442833            0.0129749             0.00416847            0.0128024             -0.910996             0.313036             
  42500000000           -0.911706             0.295132              0.00477681            0.0135554             0.00464036            0.0133919             -0.912908             0.316146             
  43000000000           -0.913057             0.296142              0.00515528            0.0132657             0.00498162            0.0131798             -0.911926             0.319376             
  43500000000           -0.907749             0.303316              0.00510921            0.0132571             0.00501066            0.0131473             -0.90636              0.325484             
  44000000000           -0.903647             0.313212              0.00515982            0.0135297             0.00498351            0.013294              -0.899977             0.333871             
  44500000000           -0.904232             0.316432              0.00561594            0.0132773             0.00549459            0.0131101             -0.898292             0.336165             
  45000000000           -0.906237             0.311797              0.00525882            0.0130911             0.00507282            0.012919              -0.89881              0.330789             
  45500000000           -0.903961             0.308969              0.00512865            0.0136011             0.00487492            0.0134148             -0.899547             0.330082             
  46000000000           -0.898683             0.316397              0.00542533            0.0136403             0.00520892            0.0134844             -0.896912             0.338323             
  46500000000           -0.897414             0.325161              0.00553739            0.0137047             0.00537433            0.0134736             -0.894105             0.347431             
  47000000000           -0.901114             0.32625               0.00576009            0.0138846             0.005541              0.0137224             -0.894219             0.350967             
  47500000000           -0.902434             0.324129              0.00591409            0.0139112             0.00564488            0.0137144             -0.89341              0.352607             
