! VERSION = 6.00
!Measured by: Marcus Mueller on Thu Nov 15 14:34:20 WEST 2018
!TECHNOLOGY: Teledyne
!WAFER: w033
!DIE Nr.: x
!TRANSISTOR Name: 0p25x2x1_2
!Emitter size: 0.25x2
!Configuration: CBE
!Temperature: 298
BEGIN_HEADER
 ICCAP_INPUTS
  ve         V  E GROUND GND 0.0075 CON        0
  vs         V  S GROUND GND 0.0075 CON        0
  vbe        V  B GROUND SMU_B 0.0006 LIN        2    0.8        -0.5       14   -0.1      
  freq       F  LIN        1    1e+009     5e+010     50   1e+009    
  vc         V  C GROUND SMU_C 0.0075 SYNC       1 0 vbe
 ICCAP_OUTPUTS
  S          S  B C Ground NWA B
  ib         I  B GROUND SMU_B B
  ic         I  C GROUND SMU_C B
  S_deemb    S P1 P2 GROUND n/a B
  Y          Y P1 P2 GROUND n/a B
 ICCAP_VALUES
  MEAS_BY "Marcus Mueller"
  TECH "Teledyne"
  WAFER "w033"
  DIE "x"
  TRAN "0p25x2x1_2"
  WIDTH "0.25"
  LENGTH "2"
  CONFIG "CBE"
  TEMP "298"
END_HEADER

BEGIN_DB
 ICCAP_VAR ve         0              
 ICCAP_VAR vs         0              
 ICCAP_VAR vbe        0.8            
 ICCAP_VAR vc         0.8            

 #freq            R:S(1,1)        I:S(1,1)        R:S(1,2)        I:S(1,2)        R:S(2,1)        I:S(2,1)        R:S(2,2)        I:S(2,2)        ib              ic              R:S_deemb(1,1)  I:S_deemb(1,1)  R:S_deemb(1,2)  I:S_deemb(1,2)  R:S_deemb(2,1)  I:S_deemb(2,1)  R:S_deemb(2,2)  I:S_deemb(2,2)  R:Y(1,1)        I:Y(1,1)        R:Y(1,2)        I:Y(1,2)        R:Y(2,1)        I:Y(2,1)        R:Y(2,2)        I:Y(2,2)       
  1e+009          0.930624        -0.0307757      0.000284504     0.00505208      -1.98784        0.139139        0.994456        -0.117341       5.5022e-005     0.0012632       0.93079         -0.0157188      0.000272687     0.00498711      -1.94593        0.111727        0.951004        -0.106916       0.00071321      0.00011525      3.01041e-007    -5.29462e-005   0.0206626       6.10957e-005    0.00044104      0.00106735     
  2e+009          0.929194        -0.0614719      0.00073257      0.0104548       -1.92768        0.17364         1.01278         -0.100778       5.5022e-005     0.0012632       0.930203        -0.0305844      0.000608333     0.0100875       -1.91316        0.136546        0.997276        -0.0970144      0.000712156     0.000224435     -9.02102e-008   -0.000104683    0.0198667       -0.000236034    -2.2228e-005    0.000870119    
  3e+009          0.925874        -0.0908489      0.00103051      0.0153505       -1.94426        0.195765        0.997556        -0.081421       5.5022e-005     0.0012632       0.927802        -0.0455864      0.000396672     0.0148925       -1.95402        0.10406         1.00348         -0.0366492      0.000734008     0.000333966     1.19743e-006    -0.000154166    0.0202464       -0.000380835    -4.55391e-005   0.000214599    
  4e+009          0.92165         -0.122226       0.00277558      0.020189        -1.94217        0.293682        0.990342        -0.143508       5.5022e-005     0.0012632       0.926941        -0.0611892      0.0013009       0.0197008       -1.95096        0.146233        0.988448        -0.0606664      0.000725529     0.000450059     -2.82375e-006   -0.000205721    0.0203819       -0.000460767    8.57503e-005    0.00041117     
  5e+009          0.916823        -0.152237       0.00393723      0.0254289       -1.90052        0.343008        0.992521        -0.156777       5.5022e-005     0.0012632       0.924342        -0.076          0.00210904      0.0247733       -1.91114        0.194287        0.990699        -0.0869627      0.000734349     0.000562244     -3.66519e-006   -0.000258785    0.0199872       -0.000610716    3.72677e-005    0.000627234    
  6e+009          0.910594        -0.181583       0.00497654      0.0301068       -1.91537        0.387091        0.986105        -0.164179       5.5022e-005     0.0012632       0.921412        -0.0918699      0.00221784      0.0295282       -1.94473        0.200048        0.997219        -0.0708014      0.00075134      0.00068105      -2.06896e-006   -0.000307632    0.0202989       -0.000695775    -1.94807e-005   0.000408969    
  7e+009          0.903049        -0.211941       0.00802353      0.0345834       -1.89511        0.478812        0.973356        -0.220926       5.5022e-005     0.0012632       0.920085        -0.106563       0.00351519      0.0341599       -1.93793        0.229962        0.984896        -0.0819035      0.000737206     0.000789931     -8.33209e-006   -0.000358628    0.0203706       -0.00079073     8.27154e-005    0.000479504    
  8e+009          0.895284        -0.240875       0.00962969      0.0395949       -1.85961        0.523406        0.974975        -0.231982       5.5022e-005     0.0012632       0.915881        -0.121763       0.00447818      0.0390823       -1.90254        0.280016        0.984598        -0.111444       0.000754346     0.000911655     -5.79375e-006   -0.000411093    0.0200769       -0.000926966    5.05158e-005    0.000732648    
  9e+009          0.885742        -0.271251       0.0115244       0.0438129       -1.86633        0.575352        0.968715        -0.24555        5.5022e-005     0.0012632       0.911714        -0.135813       0.00490715      0.0438225       -1.93126        0.294608        0.990483        -0.105683       0.000776277     0.00101184      -4.51223e-006   -0.000460145    0.0203617       -0.00101224     -9.54167e-006   0.000615589    
  1e+010          0.876079        -0.299201       0.0151519       0.0475249       -1.83559        0.651473        0.949921        -0.290986       5.5022e-005     0.0012632       0.909354        -0.153914       0.00658631      0.0483369       -1.92237        0.32317         0.978796        -0.113979       0.00075802      0.00116016      -1.12852e-005   -0.000511577    0.0204182       -0.00108695     8.16913e-005    0.000661563    
  1.1e+010        0.862706        -0.327285       0.0172711       0.0518848       -1.79607        0.693618        0.949713        -0.305313       5.5022e-005     0.0012632       0.904353        -0.165095       0.00766954      0.0531826       -1.88886        0.363539        0.978177        -0.140614       0.000782035     0.00124356      -7.04724e-006   -0.00056404     0.0201575       -0.00119895     4.71458e-005    0.000887729    
  1.2e+010        0.853089        -0.356066       0.0183728       0.0546019       -1.79567        0.758824        0.943001        -0.324509       5.5022e-005     0.0012632       0.898622        -0.182418       0.00739898      0.0567137       -1.91127        0.391734        0.981691        -0.137622       0.000813947     0.00139438      3.90314e-006    -0.000600606    0.0204437       -0.00134986     1.35763e-005    0.000809838    
  1.3e+010        0.836438        -0.384099       0.02078         0.064482        -1.75221        0.837613        0.919304        -0.373497       5.5022e-005     0.0012632       0.893656        -0.198987       0.00631597      0.0685069       -1.90536        0.420399        0.971039        -0.145469       0.000846859     0.00145138      3.72595e-005    -0.00072647     0.0205743       -0.00152492     0.000117773     0.000774546    
  1.4e+010        0.821009        -0.409574       0.0287525       0.0677718       -1.705          0.859512        0.913828        -0.383342       5.5022e-005     0.0012632       0.889384        -0.208931       0.0166548       0.0746658       -1.86313        0.450691        0.965275        -0.172998       0.000764504     0.0015128       -4.7553e-005    -0.000805903    0.0201689       -0.00155228     3.4541e-005     0.00101048     
  1.5e+010        0.802425        -0.439737       0.0323839       0.0694775       -1.70077        0.944506        0.901845        -0.403971       5.5022e-005     0.0012632       0.880139        -0.217075       0.02203         0.0729013       -1.89973        0.484913        0.971618        -0.16836        0.000777261     0.0016222       -0.000104264    -0.000795276    0.0205715       -0.00179041     -9.0084e-005    0.000959515    
  1.6e+010        0.788129        -0.460007       0.0381957       0.071345        -1.6425         1.00857         0.872805        -0.446852       5.5022e-005     0.0012632       0.877323        -0.241555       0.021634        0.0719293       -1.87681        0.512404        0.956143        -0.171195       0.00075561      0.00190332      -9.02339e-005   -0.000792151    0.0205708       -0.00181044     6.50974e-005    0.00101964     
  1.7e+010        0.771127        -0.485048       0.0416923       0.0748839       -1.59896        1.0252          0.872448        -0.453002       5.5022e-005     0.0012632       0.872219        -0.249966       0.0209622       0.0753337       -1.83746        0.54601         0.956417        -0.20548        0.000800416     0.00198146      -5.95612e-005   -0.000828426    0.0202792       -0.00181425     1.75582e-005    0.00134099     
  1.8e+010        0.750634        -0.507915       0.0458043       0.0765023       -1.57365        1.09211         0.851786        -0.476062       5.5022e-005     0.0012632       0.863426        -0.264585       0.0203514       0.0804685       -1.86432        0.572908        0.957146        -0.197606       0.000855687     0.00209024      -4.17296e-005   -0.000883435    0.0206829       -0.00202564     1.92164e-005    0.00119195     
  1.9e+010        0.728313        -0.534022       0.0521569       0.0771274       -1.5151         1.16317         0.824957        -0.510542       5.5022e-005     0.0012632       0.8541          -0.27698        0.0228206       0.0845065       -1.84953        0.607448        0.940202        -0.208807       0.000888626     0.00219787      -4.87005e-005   -0.000940908    0.0208376       -0.00220219     0.000137057     0.00128549     
  2e+010          0.708022        -0.550633       0.0547073       0.0790607       -1.46904        1.17799         0.8194          -0.51949        5.5022e-005     0.0012632       0.849458        -0.287429       0.0242529       0.0884535       -1.81625        0.638163        0.938862        -0.232908       0.000893809     0.00229162      -3.83092e-005   -0.000986471    0.0205978       -0.00225603     8.96748e-005    0.00150182     
  2.1e+010        0.682742        -0.577193       0.0593815       0.0801456       -1.4191         1.24481         0.796987        -0.539905       5.5022e-005     0.0012632       0.837899        -0.300802       0.0249443       0.092894        -1.82629        0.677114        0.938398        -0.23149        0.00095701      0.00240871      -3.01805e-005   -0.00103892     0.0208916       -0.00255628     7.35948e-005    0.00142896     
  2.2e+010        0.665849        -0.59372        0.064062        0.0798527       -1.35636        1.28266         0.766472        -0.572618       5.5022e-005     0.0012632       0.830044        -0.318661       0.0274581       0.0955411       -1.80229        0.691111        0.922885        -0.232107       0.000957206     0.00259742      -3.94612e-005   -0.00108314     0.0208874       -0.00257651     0.000202274     0.00143755     
  2.3e+010        0.640651        -0.609315       0.065942        0.0811289       -1.30786        1.29366         0.760609        -0.582082       5.5022e-005     0.0012632       0.821332        -0.328159       0.0281562       0.0987302       -1.76288        0.723243        0.92017         -0.260235       0.00101235      0.00270625      -1.68524e-005   -0.00112237     0.0206668       -0.00262894     0.000161743     0.00170838     
  2.4e+010        0.619512        -0.629082       0.0646345       0.0855501       -1.29752        1.33871         0.758381        -0.594392       5.5022e-005     0.0012632       0.810186        -0.339909       0.0239388       0.102906        -1.78081        0.752027        0.927681        -0.270142       0.00113775      0.00281095      4.96106e-005    -0.00115636     0.0210031       -0.00270613     0.00010266      0.00172955     
  2.5e+010        0.599357        -0.653411       0.0649325       0.0897197       -1.21541        1.39004         0.709807        -0.636151       5.5022e-005     0.0012632       0.803099        -0.371456       0.0182394       0.109211        -1.76197        0.779504        0.909421        -0.268609       0.00116097      0.00310434      0.000146947     -0.00121931     0.0211872       -0.00279364     0.000350577     0.00167769     
  2.6e+010        0.555124        -0.657995       0.0858158       0.106984        -1.14128        1.36623         0.690385        -0.644653       5.5022e-005     0.0012632       0.780565        -0.363166       0.0313287       0.137212        -1.69029        0.787806        0.886901        -0.311938       0.00130115      0.00279848      0.000110566     -0.00157717     0.0207391       -0.00295809     0.00032505      0.00190109     
  2.7e+010        0.549418        -0.671717       0.0942615       0.0980172       -1.16384        1.4369          0.686013        -0.639148       5.5022e-005     0.0012632       0.768588        -0.383153       0.0427546       0.131092        -1.73335        0.831677        0.889306        -0.29559        0.00119803      0.00308984      -2.36735e-005   -0.00154448     0.0213033       -0.00316364     0.000195905     0.00175316     
  2.8e+010        0.522061        -0.6851         0.10032         0.0878012       -1.07093        1.47101         0.650763        -0.661364       5.5022e-005     0.0012632       0.76345         -0.387532       0.0482853       0.129615        -1.71995        0.85294         0.871573        -0.293772       0.00115295      0.00316701      -8.1622e-005    -0.00155945     0.0214114       -0.00336883     0.000305508     0.00179134     
  2.9e+010        0.505237        -0.698763       0.102638        0.0873148       -1.03461        1.47607         0.638453        -0.671198       5.5022e-005     0.0012632       0.757944        -0.405031       0.0516796       0.130296        -1.68445        0.881075        0.868979        -0.311802       0.00110113      0.00339087      -8.36896e-005   -0.00157878     0.0211766       -0.00335853     0.000249567     0.00199478     
  3e+010          0.468565        -0.703759       0.104905        0.085291        -0.972337       1.49918         0.628015        -0.682471       5.5022e-005     0.0012632       0.735979        -0.397009       0.0540419       0.134289        -1.67739        0.906434        0.872101        -0.319289       0.00132747      0.00334035      -9.58959e-005   -0.00164264     0.0213562       -0.00369108     0.000142316     0.00200993     
  3.1e+010        0.461232        -0.721421       0.109528        0.0850429       -0.948568       1.5492          0.597976        -0.70382        5.5022e-005     0.0012632       0.740225        -0.416865       0.0652061       0.131747        -1.68975        0.932029        0.858529        -0.319816       0.00105388      0.0035481       -0.000202902    -0.00165186     0.0215451       -0.00362489     0.000153683     0.00206795     
  3.2e+010        0.432598        -0.726145       0.108446        0.0798044       -0.851411       1.54663         0.563424        -0.70722        5.5022e-005     0.0012632       0.727524        -0.432749       0.053643        0.129445        -1.64923        0.977668        0.850212        -0.325694       0.00122582      0.00381965      -6.52461e-005   -0.00160723     0.0216428       -0.00400137     0.000327934     0.00218017     
  3.3e+010        0.415778        -0.747504       0.113692        0.0842058       -0.845079       1.57778         0.571539        -0.723651       5.5022e-005     0.0012632       0.722359        -0.445692       0.0564589       0.137569        -1.64006        1.00221         0.855511        -0.351405       0.00119658      0.00389002      -3.52483e-005   -0.00169657     0.0215795       -0.0039237      0.000166959     0.00233878     
  3.4e+010        0.370709        -0.75131        0.113008        0.0787432       -0.727612       1.60706         0.534207        -0.740332       5.5022e-005     0.0012632       0.692591        -0.449688       0.0546219       0.138514        -1.61287        1.04416         0.839635        -0.349578       0.00148122      0.00405229      -2.39863e-006   -0.00173819     0.0219814       -0.00446273     0.00031067      0.00233699     
  3.5e+010        0.364411        -0.768699       0.113319        0.0799049       -0.719705       1.57327         0.502167        -0.757356       5.5022e-005     0.0012632       0.700858        -0.479547       0.0551345       0.140125        -1.58105        1.01799         0.823132        -0.364867       0.00128039      0.00434018      4.19547e-005    -0.00175846     0.0216363       -0.00378839     0.000484208     0.00255114     
  3.6e+010        0.314239        -0.779434       0.1043          0.0889622       -0.653826       1.6346          0.503662        -0.773826       5.5022e-005     0.0012632       0.663904        -0.498516       0.0404782       0.144691        -1.56182        1.09967         0.842059        -0.391          0.00172322      0.00468859      0.000263129     -0.0017535      0.0221292       -0.00429575     0.000324332     0.00267027     
  3.7e+010        0.295943        -0.778165       0.116252        0.109226        -0.595221       1.60831         0.429829        -0.794998       5.5022e-005     0.0012632       0.661988        -0.511023       0.0371198       0.175296        -1.5506         1.08203         0.797238        -0.402841       0.00175759      0.00442356      0.000455354     -0.00211146     0.0223907       -0.00426394     0.00080266      0.00256696     
  3.8e+010        0.249382        -0.765134       0.135081        0.120993        -0.532634       1.57354         0.394829        -0.78251        5.5022e-005     0.0012632       0.614809        -0.507336       0.0480998       0.200624        -1.4654         1.09592         0.752545        -0.438821       0.00216944      0.0043203       0.00051874      -0.00252655     0.0224009       -0.00464187     0.000973033     0.00281448     
  3.9e+010        0.23992         -0.759381       0.166189        0.117426        -0.533144       1.60282         0.386074        -0.755352       5.5022e-005     0.0012632       0.59557         -0.503969       0.0809241       0.216357        -1.49307        1.10753         0.73623         -0.403986       0.00191969      0.00411096      0.000161997     -0.0028854      0.0226754       -0.00517118     0.00081179      0.00225785     
  4e+010          0.218499        -0.758172       0.18112         0.0967761       -0.487798       1.62743         0.36927         -0.754354       5.5022e-005     0.0012632       0.579043        -0.504909       0.102123        0.2111          -1.49695        1.11485         0.712599        -0.386655       0.00178395      0.00423395      -0.000108342    -0.00296208     0.0229913       -0.00528913     0.000839759     0.00218643     
  4.1e+010        0.20547         -0.746183       0.185636        0.0770938       -0.410522       1.60825         0.349508        -0.750943       5.5022e-005     0.0012632       0.578186        -0.478896       0.12378         0.207937        -1.48125        1.15276         0.704861        -0.374434       0.00154123      0.00401392      -0.000413437    -0.00300955     0.0227648       -0.00607807     0.000587988     0.00218642     
  4.2e+010        0.183467        -0.755582       0.184019        0.0743622       -0.374816       1.6411          0.357857        -0.751977       5.5022e-005     0.0012632       0.553639        -0.497352       0.130082        0.202872        -1.45453        1.21241         0.729492        -0.369466       0.00156293      0.0044869       -0.000461992    -0.00296553     0.0226688       -0.00649988     0.000202374     0.00214558     
