! VERSION = 6.00
!Measured by: Marcus Mueller on Fri Nov 16 09:32:57 WEST 2018
!TECHNOLOGY: Teledyne
!WAFER: w096
!DIE Nr.: y
!TRANSISTOR Name: 0p25x10x1_full
!Emitter size: 0.25x10
!Configuration: CBE
!Temperature: 298
BEGIN_HEADER
 ICCAP_INPUTS
  vb         V  B GROUND SMU_B 0.003 LIN        1    0.3        0.82       53   0.01      
  vc         V  C GROUND SMU_C 0.0375 SYNC       1 0.25 vb
  ve         V  E GROUND GND 0 CON        0
  vs         V  S GROUND GND 0 CON        0
 ICCAP_OUTPUTS
  ic         I  C GROUND SMU_C B
  ib         I  B GROUND SMU_B B
 ICCAP_VALUES
  MEAS_BY "Marcus Mueller"
  TECH "Teledyne"
  WAFER "w096"
  DIE "y"
  TRAN "0p25x10x1_full"
  WIDTH "0.25"
  LENGTH "10"
  CONFIG "CBE"
  TEMP "298"
END_HEADER

BEGIN_DB
 ICCAP_VAR ve         0              
 ICCAP_VAR vs         0              

 #vb              vc              ic              ib             
  0.3             0.55            1.7216e-007     -1.5538e-007   
  0.31            0.56            1.642e-007      -1.5492e-007   
  0.32            0.57            1.6302e-007     -1.5378e-007   
  0.33            0.58            1.6304e-007     -1.535e-007    
  0.34            0.59            1.6058e-007     -1.526e-007    
  0.35            0.6             1.6324e-007     -1.5114e-007   
  0.36            0.61            1.6052e-007     -1.4958e-007   
  0.37            0.62            1.6184e-007     -1.4782e-007   
  0.38            0.63            1.6408e-007     -1.462e-007    
  0.39            0.64            1.6458e-007     -1.4268e-007   
  0.4             0.65            1.6676e-007     -1.3846e-007   
  0.41            0.66            1.6956e-007     -1.3508e-007   
  0.42            0.67            1.743e-007      -1.2882e-007   
  0.43            0.68            1.7978e-007     -1.2058e-007   
  0.44            0.69            1.9074e-007     -1.1264e-007   
  0.45            0.7             2.0164e-007     -1.0032e-007   
  0.46            0.71            2.2296e-007     -8.5416e-008   
  0.47            0.72            2.4912e-007     -6.6556e-008   
  0.48            0.73            2.9028e-007     -4.2592e-008   
  0.49            0.74            3.4928e-007     -1.184e-008    
  0.5             0.75            4.3706e-007     2.7e-008       
  0.51            0.76            5.6598e-007     7.679e-008     
  0.52            0.77            7.6284e-007     1.4048e-007    
  0.53            0.78            1.01e-006       2.2144e-007    
  0.54            0.79            1.4686e-006     3.2486e-007    
  0.55            0.8             2.0842e-006     4.586e-007     
  0.56            0.81            2.9912e-006     6.2882e-007    
  0.57            0.82            4.3244e-006     8.4864e-007    
  0.58            0.83            6.2892e-006     1.12906e-006   
  0.59            0.84            7.648e-006      1.4984e-006    
  0.6             0.85            1.34e-005       1.966e-006     
  0.61            0.86            1.9572e-005     2.5752e-006    
  0.62            0.87            2.853e-005      3.3614e-006    
  0.63            0.88            4.1172e-005     4.3842e-006    
  0.64            0.89            5.9272e-005     5.695e-006     
  0.65            0.9             8.515e-005      7.3982e-006    
  0.66            0.91            0.00012172      9.5962e-006    
  0.67            0.92            0.00017384      1.248e-005     
  0.68            0.93            0.00024652      1.6192e-005    
  0.69            0.94            0.00034908      2.0992e-005    
  0.7             0.95            0.00049168      2.7228e-005    
  0.71            0.96            0.0006878       3.5186e-005    
  0.72            0.97            0.0009541       4.5328e-005    
  0.73            0.98            0.001307        5.7988e-005    
  0.74            0.99            0.0017604       7.3478e-005    
  0.75            1               0.0023258       9.2058e-005    
  0.76            1.01            0.0030158       0.000113984    
  0.77            1.02            0.0038176       0.00013892     
  0.78            1.03            0.0047338       0.00016696     
  0.79            1.04            0.0057574       0.00019808     
  0.8             1.05            0.0068828       0.00023218     
  0.81            1.06            0.008101        0.0002696      
  0.82            1.07            0.00942         0.00031056     
END_DB

