! VERSION = 6.00
!Measured by: Marcus Mueller on Fri Nov 16 09:32:38 WEST 2018
!TECHNOLOGY: Teledyne
!WAFER: w096
!DIE Nr.: y
!TRANSISTOR Name: 0p25x10x1_full
!Emitter size: 0.25x10
!Configuration: CBE
!Temperature: 298
BEGIN_HEADER
 ICCAP_INPUTS
  vb         V  B GROUND SMU_B 0.003 LIN        1    0.1        0.82       73   0.01      
  vc         V  C GROUND SMU_C 0.0375 SYNC       1 0 vb
  ve         V  E GROUND GND 0 CON        0
  vs         V  S GROUND GND 0 CON        0
 ICCAP_OUTPUTS
  ic         I  C GROUND SMU_C B
  ib         I  B GROUND SMU_B B
 ICCAP_VALUES
  MEAS_BY "Marcus Mueller"
  TECH "Teledyne"
  WAFER "w096"
  DIE "y"
  TRAN "0p25x10x1_full"
  WIDTH "0.25"
  LENGTH "10"
  CONFIG "CBE"
  TEMP "298"
END_HEADER

BEGIN_DB
 ICCAP_VAR ve         0              
 ICCAP_VAR vs         0              

 #vb              vc              ic              ib             
  0.1             0.1             4.252e-009      1.2904e-009    
  0.11            0.11            -1.132e-009     1.2912e-009    
  0.12            0.12            -2.38e-009      1.2984e-009    
  0.13            0.13            -1.854e-009     1.3164e-009    
  0.14            0.14            -1.582e-009     1.4078e-009    
  0.15            0.15            -1.384e-009     1.365e-009     
  0.16            0.16            -1.044e-009     1.4008e-009    
  0.17            0.17            7.36e-010       1.4346e-009    
  0.18            0.18            -5.44e-010      1.4736e-009    
  0.19            0.19            -7.26e-010      1.4704e-009    
  0.2             0.2             -4.96e-010      1.5154e-009    
  0.21            0.21            -5.92e-010      1.589e-009     
  0.22            0.22            1.162e-009      1.6658e-009    
  0.23            0.23            1.98e-010       1.7544e-009    
  0.24            0.24            -2.26e-010      1.8876e-009    
  0.25            0.25            1.528e-009      2.0264e-009    
  0.26            0.26            3.4e-010        2.1964e-009    
  0.27            0.27            2.14e-010       2.4254e-009    
  0.28            0.28            2.182e-009      2.6302e-009    
  0.29            0.29            9.24e-010       2.9688e-009    
  0.3             0.3             4.98e-010       3.393e-009     
  0.31            0.31            2.278e-009      3.903e-009     
  0.32            0.32            2.094e-009      4.5418e-009    
  0.33            0.33            1.324e-009      5.31e-009      
  0.34            0.34            4.916e-009      6.3362e-009    
  0.35            0.35            2.014e-009      7.5764e-009    
  0.36            0.36            2.356e-009      9.1368e-009    
  0.37            0.37            3.992e-009      1.10936e-008   
  0.38            0.38            3.294e-009      1.3524e-008    
  0.39            0.39            6.766e-009      1.6544e-008    
  0.4             0.4             8.3e-009        2.0318e-008    
  0.41            0.41            1.2246e-008     2.51e-008      
  0.42            0.42            1.5326e-008     3.1076e-008    
  0.43            0.43            2.1592e-008     3.8576e-008    
  0.44            0.44            3.308e-008      4.7862e-008    
  0.45            0.45            4.556e-008      5.9778e-008    
  0.46            0.46            6.773e-008      7.4848e-008    
  0.47            0.47            9.456e-008      9.3452e-008    
  0.48            0.48            1.3568e-007     1.1724e-007    
  0.49            0.49            1.9632e-007     1.466e-007     
  0.5             0.5             2.8788e-007     1.8554e-007    
  0.51            0.51            4.2028e-007     2.3338e-007    
  0.52            0.52            6.1282e-007     2.953e-007     
  0.53            0.53            8.826e-007      3.7428e-007    
  0.54            0.54            1.3336e-006     4.7414e-007    
  0.55            0.55            1.9596e-006     6.032e-007     
  0.56            0.56            2.8784e-006     7.6922e-007    
  0.57            0.57            4.2312e-006     9.8326e-007    
  0.58            0.58            6.215e-006      1.2572e-006    
  0.59            0.59            9.632e-006      1.614e-006     
  0.6             0.6             1.341e-005      2.0796e-006    
  0.61            0.61            1.9626e-005     2.681e-006     
  0.62            0.62            2.8646e-005     3.4614e-006    
  0.63            0.63            4.1366e-005     4.464e-006     
  0.64            0.64            5.968e-005      5.7682e-006    
  0.65            0.65            8.5642e-005     7.469e-006     
  0.66            0.66            0.00012212      9.6532e-006    
  0.67            0.67            0.0001744       1.2514e-005    
  0.68            0.68            0.0002473       1.6184e-005    
  0.69            0.69            0.00034918      2.0934e-005    
  0.7             0.7             0.0004909       2.7058e-005    
  0.71            0.71            0.00068484      3.4834e-005    
  0.72            0.72            0.00094712      4.4708e-005    
  0.73            0.73            0.001292        5.6934e-005    
  0.74            0.74            0.0017338       7.1794e-005    
  0.75            0.75            0.0022828       8.95e-005      
  0.76            0.76            0.0029482       0.00011033     
  0.77            0.77            0.0037168       0.0001338      
  0.78            0.78            0.0045922       0.00016008     
  0.79            0.79            0.005566        0.00018912     
  0.8             0.8             0.0066262       0.0002208      
  0.81            0.81            0.007773        0.00025518     
  0.82            0.82            0.009002        0.00029258     
END_DB

