! VERSION = 6.00
!Measured by: Marcus Mueller on Fri Nov 16 09:32:23 WEST 2018
!TECHNOLOGY: Teledyne
!WAFER: w096
!DIE Nr.: y
!TRANSISTOR Name: 0p25x10x1_full
!Emitter size: 0.25x10
!Configuration: CBE
!Temperature: 298
BEGIN_HEADER
 ICCAP_INPUTS
  vb         V  B GROUND SMU_B 0.003 LIN        1    0.3        0.82       53   0.01      
  vc         V  C GROUND SMU_C 0.0375 SYNC       1 -0.2 vb
  ve         V  E GROUND GND 0 CON        0
  vs         V  S GROUND GND 0 CON        0
 ICCAP_OUTPUTS
  ic         I  C GROUND SMU_C B
  ib         I  B GROUND SMU_B B
 ICCAP_VALUES
  MEAS_BY "Marcus Mueller"
  TECH "Teledyne"
  WAFER "w096"
  DIE "y"
  TRAN "0p25x10x1_full"
  WIDTH "0.25"
  LENGTH "10"
  CONFIG "CBE"
  TEMP "298"
END_HEADER

BEGIN_DB
 ICCAP_VAR ve         0              
 ICCAP_VAR vs         0              

 #vb              vc              ic              ib             
  0.3             0.1             -4.719e-007     4.9004e-007    
  0.31            0.11            -4.7284e-007    4.9026e-007    
  0.32            0.12            -4.734e-007     4.912e-007     
  0.33            0.13            -4.7314e-007    4.9132e-007    
  0.34            0.14            -4.7444e-007    4.9206e-007    
  0.35            0.15            -4.7092e-007    4.9374e-007    
  0.36            0.16            -4.6962e-007    4.9444e-007    
  0.37            0.17            -4.6826e-007    4.955e-007     
  0.38            0.18            -4.7054e-007    4.9866e-007    
  0.39            0.19            -4.6858e-007    5.0044e-007    
  0.4             0.2             -4.66e-007      5.065e-007     
  0.41            0.21            -4.6442e-007    5.1128e-007    
  0.42            0.22            -4.5954e-007    5.1712e-007    
  0.43            0.23            -4.5334e-007    5.2422e-007    
  0.44            0.24            -4.4362e-007    5.3386e-007    
  0.45            0.25            -4.3102e-007    5.4578e-007    
  0.46            0.26            -4.118e-007     5.6072e-007    
  0.47            0.27            -3.813e-007     5.7904e-007    
  0.48            0.28            -3.3952e-007    6.0222e-007    
  0.49            0.29            -2.7908e-007    6.3136e-007    
  0.5             0.3             -1.871e-007     6.7208e-007    
  0.51            0.31            -6.013e-008     7.2026e-007    
  0.52            0.32            1.4136e-007     7.7952e-007    
  0.53            0.33            4.2718e-007     8.587e-007     
  0.54            0.34            8.338e-007      9.5922e-007    
  0.55            0.35            1.4882e-006     1.08936e-006   
  0.56            0.36            2.4168e-006     1.2538e-006    
  0.57            0.37            3.7792e-006     1.465e-006     
  0.58            0.38            5.7804e-006     1.739e-006     
  0.59            0.39            7.534e-006      2.101e-006     
  0.6             0.4             1.3008e-005     2.5594e-006    
  0.61            0.41            1.932e-005      3.1628e-006    
  0.62            0.42            2.8328e-005     3.935e-006     
  0.63            0.43            4.123e-005      4.9418e-006    
  0.64            0.44            5.9546e-005     6.234e-006     
  0.65            0.45            8.5594e-005     7.9072e-006    
  0.66            0.46            0.0001223       1.00764e-005   
  0.67            0.47            0.00017464      1.2914e-005    
  0.68            0.48            0.0002475       1.6542e-005    
  0.69            0.49            0.0003491       2.1232e-005    
  0.7             0.5             0.00049024      2.725e-005     
  0.71            0.51            0.00068256      3.489e-005     
  0.72            0.52            0.00094154      4.4548e-005    
  0.73            0.53            0.001282        5.6458e-005    
  0.74            0.54            0.0017154       7.091e-005     
  0.75            0.55            0.0022508       8.8032e-005    
  0.76            0.56            0.0028986       0.000108034    
  0.77            0.57            0.003646        0.00013066     
  0.78            0.58            0.0044924       0.00015602     
  0.79            0.59            0.0054306       0.00018384     
  0.8             0.6             0.0064506       0.0002143      
  0.81            0.61            0.0075446       0.0002472      
  0.82            0.62            0.0087166       0.00028302     
END_DB

