! VERSION = 6.00
!Measured by: Marcus Mueller on Fri Nov 16 09:33:03 WEST 2018
!TECHNOLOGY: Teledyne
!WAFER: w096
!DIE Nr.: y
!TRANSISTOR Name: 0p25x10x1_full
!Emitter size: 0.25x10
!Configuration: CBE
!Temperature: 298
BEGIN_HEADER
 ICCAP_INPUTS
  vb         V  B GROUND SMU_B 0.003 LIN        1    0.3        0.82       53   0.01      
  vc         V  C GROUND SMU_C 0.0375 SYNC       1 0.3 vb
  ve         V  E GROUND GND 0 CON        0
  vs         V  S GROUND GND 0 CON        0
 ICCAP_OUTPUTS
  ic         I  C GROUND SMU_C B
  ib         I  B GROUND SMU_B B
 ICCAP_VALUES
  MEAS_BY "Marcus Mueller"
  TECH "Teledyne"
  WAFER "w096"
  DIE "y"
  TRAN "0p25x10x1_full"
  WIDTH "0.25"
  LENGTH "10"
  CONFIG "CBE"
  TEMP "298"
END_HEADER

BEGIN_DB
 ICCAP_VAR ve         0              
 ICCAP_VAR vs         0              

 #vb              vc              ic              ib             
  0.3             0.6             2.0278e-007     -1.8466e-007   
  0.31            0.61            1.9396e-007     -1.8384e-007   
  0.32            0.62            1.9036e-007     -1.829e-007    
  0.33            0.63            1.8876e-007     -1.8276e-007   
  0.34            0.64            1.9128e-007     -1.8158e-007   
  0.35            0.65            1.8938e-007     -1.8092e-007   
  0.36            0.66            1.901e-007      -1.794e-007    
  0.37            0.67            1.9086e-007     -1.7788e-007   
  0.38            0.68            1.918e-007      -1.7488e-007   
  0.39            0.69            1.9294e-007     -1.7202e-007   
  0.4             0.7             1.9638e-007     -1.6834e-007   
  0.41            0.71            1.9658e-007     -1.6312e-007   
  0.42            0.72            2.018e-007      -1.5818e-007   
  0.43            0.73            2.0776e-007     -1.5064e-007   
  0.44            0.74            2.1562e-007     -1.4004e-007   
  0.45            0.75            2.2924e-007     -1.2944e-007   
  0.46            0.76            2.4992e-007     -1.1394e-007   
  0.47            0.77            2.7738e-007     -9.553e-008    
  0.48            0.78            3.1634e-007     -7.09e-008     
  0.49            0.79            3.7464e-007     -3.9374e-008   
  0.5             0.8             4.6228e-007     -7.245e-010    
  0.51            0.81            5.8906e-007     4.8876e-008    
  0.52            0.82            7.9846e-007     1.13348e-007   
  0.53            0.83            1.0566e-006     1.9426e-007    
  0.54            0.84            1.4934e-006     2.9984e-007    
  0.55            0.85            2.1062e-006     4.3366e-007    
  0.56            0.86            3.013e-006      6.0566e-007    
  0.57            0.87            4.3444e-006     8.2886e-007    
  0.58            0.88            6.3046e-006     1.11018e-006   
  0.59            0.89            9.2654e-006     1.477e-006     
  0.6             0.9             1.3466e-005     1.9482e-006    
  0.61            0.91            1.9548e-005     2.5596e-006    
  0.62            0.92            2.8472e-005     3.35e-006      
  0.63            0.93            4.1264e-005     4.3622e-006    
  0.64            0.94            5.9358e-005     5.6778e-006    
  0.65            0.95            8.5216e-005     7.3834e-006    
  0.66            0.96            0.000122        9.6014e-006    
  0.67            0.97            0.000174        1.2486e-005    
  0.68            0.98            0.00024688      1.62e-005      
  0.69            0.99            0.00034956      2.1016e-005    
  0.7             1               0.00049254      2.725e-005     
  0.71            1.01            0.00068928      3.5238e-005    
  0.72            1.02            0.0009567       4.541e-005     
  0.73            1.03            0.0013116       5.811e-005     
  0.74            1.04            0.001767        7.375e-005     
  0.75            1.05            0.002337        9.2466e-005    
  0.76            1.06            0.0030318       0.00011466     
  0.77            1.07            0.0038408       0.00013984     
  0.78            1.08            0.0047668       0.00016818     
  0.79            1.09            0.0058048       0.0001998      
  0.8             1.1             0.0069428       0.00023468     
  0.81            1.11            0.0081786       0.00027272     
  0.82            1.12            0.0095174       0.00031456     
END_DB

