! VERSION = 6.00
!Measured by: Marcus Mueller on Fri Nov 16 09:33:23 WEST 2018
!TECHNOLOGY: Teledyne
!WAFER: w096
!DIE Nr.: y
!TRANSISTOR Name: 0p25x10x1_full
!Emitter size: 0.25x10
!Configuration: CBE
!Temperature: 298
BEGIN_HEADER
 ICCAP_INPUTS
  ve         V  E GROUND GND 0 CON        0
  vs         V  S GROUND GND 0 CON        0
  vb         V  B GROUND SMU_B 0.003 LIN        1    0.5        0.83       34   0.01      
  vc         V  C GROUND SMU_C 0.0375 LIST       2 6 0.3 0.5 0.75 1 1.5 1.6
 ICCAP_OUTPUTS
  ib         I  B GROUND SMU_B B
  ic         I  C GROUND SMU_C B
 ICCAP_VALUES
  MEAS_BY "Marcus Mueller"
  TECH "Teledyne"
  WAFER "w096"
  DIE "y"
  TRAN "0p25x10x1_full"
  WIDTH "0.25"
  LENGTH "10"
  CONFIG "CBE"
  TEMP "298"
END_HEADER

BEGIN_DB
 ICCAP_VAR ve         0              
 ICCAP_VAR vs         0              
 ICCAP_VAR vc         0.3            

 #vb              ib              ic             
  0.5             6.7174e-007     -1.8766e-007   
  0.51            7.9508e-007     -1.442e-007    
  0.52            9.4012e-007     -2.3296e-008   
  0.53            1.11822e-006    1.6954e-007    
  0.54            1.3294e-006     4.8538e-007    
  0.55            1.5892e-006     1.023e-006     
  0.56            1.9076e-006     1.7634e-006    
  0.57            2.297e-006      2.9532e-006    
  0.58            2.7816e-006     4.7514e-006    
  0.59            3.3898e-006     7.4802e-006    
  0.6             4.14e-006       1.153e-005     
  0.61            5.0752e-006     1.7356e-005    
  0.62            6.2508e-006     2.6052e-005    
  0.63            7.7264e-006     3.8516e-005    
  0.64            9.5872e-006     5.6254e-005    
  0.65            1.1922e-005     8.1592e-005    
  0.66            1.488e-005      0.00011742     
  0.67            1.8716e-005     0.00016898     
  0.68            2.3514e-005     0.00024004     
  0.69            2.9628e-005     0.0003396      
  0.7             3.7412e-005     0.00047754     
  0.71            4.7264e-005     0.00066512     
  0.72            5.9672e-005     0.00091676     
  0.73            7.5158e-005     0.0012458      
  0.74            9.426e-005      0.001661       
  0.75            0.00011758      0.0021708      
  0.76            0.00014614      0.0027822      
  0.77            0.00018036      0.0034782      
  0.78            0.00022162      0.0042558      
  0.79            0.00027304      0.0051044      
  0.8             0.00033876      0.006002       
  0.81            0.00042734      0.006927       
  0.82            0.0005544       0.0078476      
  0.83            0.00074534      0.008705       
END_DB

BEGIN_DB
 ICCAP_VAR ve         0              
 ICCAP_VAR vs         0              
 ICCAP_VAR vc         0.5            

 #vb              ib              ic             
  0.5             1.835e-007      2.9606e-007    
  0.51            2.3938e-007     4.2066e-007    
  0.52            3.082e-007      6.0464e-007    
  0.53            3.9478e-007     8.8244e-007    
  0.54            5.0366e-007     1.3094e-006    
  0.55            6.4182e-007     1.925e-006     
  0.56            8.1688e-007     2.8386e-006    
  0.57            1.04214e-006    4.1858e-006    
  0.58            1.3288e-006     6.1702e-006    
  0.59            1.7024e-006     9.1146e-006    
  0.6             2.1746e-006     1.3418e-005    
  0.61            2.7926e-006     1.9542e-005    
  0.62            3.588e-006      2.864e-005     
  0.63            4.6154e-006     4.1462e-005    
  0.64            5.941e-006      5.9762e-005    
  0.65            7.65e-006       8.5802e-005    
  0.66            9.8616e-006     0.00012236     
  0.67            1.2734e-005     0.00017502     
  0.68            1.6406e-005     0.00024752     
  0.69            2.1156e-005     0.00034944     
  0.7             2.7236e-005     0.00049074     
  0.71            3.4914e-005     0.00068304     
  0.72            4.4622e-005     0.00094226     
  0.73            5.6628e-005     0.0012818      
  0.74            7.1166e-005     0.0017134      
  0.75            8.8398e-005     0.0022462      
  0.76            0.000108594     0.002887       
  0.77            0.00013138      0.003624       
  0.78            0.00015678      0.0044554      
  0.79            0.0001849       0.0053738      
  0.8             0.0002157       0.0063658      
  0.81            0.00024938      0.0074274      
  0.82            0.00028638      0.0085518      
  0.83            0.00032732      0.009743       
END_DB

BEGIN_DB
 ICCAP_VAR ve         0              
 ICCAP_VAR vs         0              
 ICCAP_VAR vc         0.75           

 #vb              ib              ic             
  0.5             2.6986e-008     4.4812e-007    
  0.51            8.1506e-008     5.766e-007     
  0.52            1.507e-007      7.6118e-007    
  0.53            2.3644e-007     1.0366e-006    
  0.54            3.439e-007      1.451e-006     
  0.55            4.807e-007      2.064e-006     
  0.56            6.5372e-007     2.9674e-006    
  0.57            8.7604e-007     4.302e-006     
  0.58            1.1586e-006     6.2678e-006    
  0.59            1.5264e-006     9.1852e-006    
  0.6             1.996e-006      1.3396e-005    
  0.61            2.6064e-006     1.9584e-005    
  0.62            3.395e-006      2.8468e-005    
  0.63            4.4116e-006     4.1204e-005    
  0.64            5.7222e-006     5.942e-005     
  0.65            7.4222e-006     8.5262e-005    
  0.66            9.6242e-006     0.00012192     
  0.67            1.2512e-005     0.0001741      
  0.68            1.6206e-005     0.00024674     
  0.69            2.0978e-005     0.0003489      
  0.7             2.7116e-005     0.00049054     
  0.71            3.4918e-005     0.0006848      
  0.72            4.4796e-005     0.0009471      
  0.73            5.7022e-005     0.0012934      
  0.74            7.1938e-005     0.0017346      
  0.75            8.9534e-005     0.002282       
  0.76            0.0001102       0.0029464      
  0.77            0.00013344      0.0037112      
  0.78            0.0001594       0.004579       
  0.79            0.000188        0.0055414      
  0.8             0.00021902      0.006586       
  0.81            0.00025258      0.0077074      
  0.82            0.00028884      0.0089052      
  0.83            0.0003281       0.0101738      
END_DB

BEGIN_DB
 ICCAP_VAR ve         0              
 ICCAP_VAR vs         0              
 ICCAP_VAR vc         1              

 #vb              ib              ic             
  0.5             -9.3182e-008    5.692e-007     
  0.51            -3.9946e-008    6.9758e-007    
  0.52            2.9056e-008     8.8714e-007    
  0.53            1.1514e-007     1.1622e-006    
  0.54            2.2388e-007     1.5722e-006    
  0.55            3.6368e-007     2.1806e-006    
  0.56            5.409e-007      3.0796e-006    
  0.57            7.665e-007      4.4062e-006    
  0.58            1.057e-006      6.3676e-006    
  0.59            1.4292e-006     9.2688e-006    
  0.6             1.9044e-006     1.3544e-005    
  0.61            2.518e-006      1.9556e-005    
  0.62            3.306e-006      2.8524e-005    
  0.63            4.3272e-006     4.122e-005     
  0.64            5.649e-006      5.9368e-005    
  0.65            7.3552e-006     8.5158e-005    
  0.66            9.5506e-006     0.0001217      
  0.67            1.2436e-005     0.00017392     
  0.68            1.6158e-005     0.00024676     
  0.69            2.0974e-005     0.00034944     
  0.7             2.7192e-005     0.00049214     
  0.71            3.517e-005      0.0006883      
  0.72            4.5328e-005     0.00095502     
  0.73            5.7972e-005     0.0013074      
  0.74            7.3496e-005     0.0017598      
  0.75            9.2044e-005     0.0023246      
  0.76            0.00011379      0.0030112      
  0.77            0.00013848      0.0038082      
  0.78            0.00016602      0.0047162      
  0.79            0.00019654      0.0057238      
  0.8             0.00022984      0.0068242      
  0.81            0.000266        0.0080136      
  0.82            0.00030518      0.009289       
  0.83            0.00034766      0.0106588      
END_DB

BEGIN_DB
 ICCAP_VAR ve         0              
 ICCAP_VAR vs         0              
 ICCAP_VAR vc         1.5            

 #vb              ib              ic             
  0.5             -3.7152e-007    8.32e-007      
  0.51            -3.2038e-007    9.296e-007     
  0.52            -2.5364e-007    1.1722e-006    
  0.53            -1.6858e-007    1.4522e-006    
  0.54            -6.382e-008     1.8656e-006    
  0.55            7.0862e-008     2.4794e-006    
  0.56            2.411e-007      3.3848e-006    
  0.57            4.6074e-007     4.721e-006     
  0.58            7.454e-007      6.6886e-006    
  0.59            1.11614e-006    9.6086e-006    
  0.6             1.5876e-006     1.3918e-005    
  0.61            2.1998e-006     1.996e-005     
  0.62            2.9918e-006     2.893e-005     
  0.63            4.0164e-006     4.1744e-005    
  0.64            5.338e-006      5.9932e-005    
  0.65            7.0498e-006     8.5944e-005    
  0.66            9.261e-006      0.00012286     
  0.67            1.2164e-005     0.00017566     
  0.68            1.5898e-005     0.00024972     
  0.69            2.0764e-005     0.00035418     
  0.7             2.7096e-005     0.00050104     
  0.71            3.5258e-005     0.0007041      
  0.72            4.578e-005      0.0009822      
  0.73            5.9076e-005     0.0013546      
  0.74            7.5712e-005     0.001839       
  0.75            9.5966e-005     0.002448       
  0.76            0.00012022      0.0031966      
  0.77            0.0001483       0.0040778      
  0.78            0.0001804       0.0050908      
  0.79            0.00021644      0.006234       
  0.8             0.00025662      0.0074972      
  0.81            0.00030122      0.0088808      
  0.82            0.00035052      0.0103944      
  0.83            0.00040584      0.01205        
END_DB

BEGIN_DB
 ICCAP_VAR ve         0              
 ICCAP_VAR vs         0              
 ICCAP_VAR vc         1.6            

 #vb              ib              ic             
  0.5             -4.4754e-007    8.898e-007     
  0.51            -3.9284e-007    1.0516e-006    
  0.52            -3.252e-007     1.2396e-006    
  0.53            -2.4022e-007    1.5172e-006    
  0.54            -1.3294e-007    1.9322e-006    
  0.55            2.485e-009      2.5458e-006    
  0.56            1.7094e-007     3.4508e-006    
  0.57            3.8996e-007     4.7864e-006    
  0.58            6.7102e-007     6.7576e-006    
  0.59            1.03878e-006    9.676e-006     
  0.6             1.5106e-006     1.4078e-005    
  0.61            2.119e-006      2.0042e-005    
  0.62            2.9048e-006     2.898e-005     
  0.63            3.9314e-006     4.1754e-005    
  0.64            5.2486e-006     6.0046e-005    
  0.65            6.9638e-006     8.605e-005     
  0.66            9.1834e-006     0.00012298     
  0.67            1.2094e-005     0.00017598     
  0.68            1.5824e-005     0.00025014     
  0.69            2.071e-005      0.00035508     
  0.7             2.7078e-005     0.00050258     
  0.71            3.5302e-005     0.00070718     
  0.72            4.5934e-005     0.000988       
  0.73            5.9432e-005     0.0013648      
  0.74            7.6302e-005     0.0018548      
  0.75            9.6846e-005     0.0024746      
  0.76            0.00012178      0.0032384      
  0.77            0.00015066      0.0041392      
  0.78            0.00018372      0.0051796      
  0.79            0.00022128      0.0063546      
  0.8             0.00026316      0.0076594      
  0.81            0.00031014      0.009099       
  0.82            0.00036244      0.0106796      
  0.83            0.00042148      0.012424       
END_DB

