! VERSION = 6.00
!Measured by: Marcus Mueller on Fri Nov 16 09:32:10 WEST 2018
!TECHNOLOGY: Teledyne
!WAFER: w096
!DIE Nr.: y
!TRANSISTOR Name: 0p25x10x1_full
!Emitter size: 0.25x10
!Configuration: CBE
!Temperature: 298
BEGIN_HEADER
 ICCAP_INPUTS
  vb         V  B GROUND SMU_B 0.003 LIN        1    0.3        0.82       53   0.01      
  vc         V  C GROUND SMU_C 0.0375 SYNC       1 -0.3 vb
  ve         V  E GROUND GND 0 CON        0
  vs         V  S GROUND GND 0 CON        0
 ICCAP_OUTPUTS
  ic         I  C GROUND SMU_C B
  ib         I  B GROUND SMU_B B
 ICCAP_VALUES
  MEAS_BY "Marcus Mueller"
  TECH "Teledyne"
  WAFER "w096"
  DIE "y"
  TRAN "0p25x10x1_full"
  WIDTH "0.25"
  LENGTH "10"
  CONFIG "CBE"
  TEMP "298"
END_HEADER

BEGIN_DB
 ICCAP_VAR ve         0              
 ICCAP_VAR vs         0              

 #vb              vc              ic              ib             
  0.3             0               -2.0586e-006    2.0584e-006    
  0.31            0.01            -2.0586e-006    2.06e-006      
  0.32            0.02            -2.058e-006     2.067e-006     
  0.33            0.03            -2.0546e-006    2.0656e-006    
  0.34            0.04            -2.0514e-006    2.0596e-006    
  0.35            0.05            -2.0492e-006    2.064e-006     
  0.36            0.06            -2.0502e-006    2.0618e-006    
  0.37            0.07            -2.0498e-006    2.0662e-006    
  0.38            0.08            -2.048e-006     2.0652e-006    
  0.39            0.09            -2.0486e-006    2.0702e-006    
  0.4             0.1             -2.0442e-006    2.075e-006     
  0.41            0.11            -2.0418e-006    2.0776e-006    
  0.42            0.12            -2.0362e-006    2.0854e-006    
  0.43            0.13            -2.0314e-006    2.0946e-006    
  0.44            0.14            -2.0208e-006    2.1018e-006    
  0.45            0.15            -2.0032e-006    2.1108e-006    
  0.46            0.16            -1.9844e-006    2.1268e-006    
  0.47            0.17            -1.9576e-006    2.1476e-006    
  0.48            0.18            -1.9156e-006    2.1712e-006    
  0.49            0.19            -1.8494e-006    2.199e-006     
  0.5             0.2             -1.7548e-006    2.24e-006      
  0.51            0.21            -1.6258e-006    2.2858e-006    
  0.52            0.22            -1.4262e-006    2.354e-006     
  0.53            0.23            -1.135e-006     2.4288e-006    
  0.54            0.24            -6.8904e-007    2.5318e-006    
  0.55            0.25            -7.288e-008     2.6566e-006    
  0.56            0.26            8.6418e-007     2.8248e-006    
  0.57            0.27            2.2206e-006     3.0362e-006    
  0.58            0.28            4.2292e-006     3.3124e-006    
  0.59            0.29            7.1898e-006     3.6754e-006    
  0.6             0.3             1.1576e-005     4.1326e-006    
  0.61            0.31            1.7712e-005     4.728e-006     
  0.62            0.32            2.674e-005      5.5052e-006    
  0.63            0.33            3.9596e-005     6.5088e-006    
  0.64            0.34            5.8016e-005     7.8074e-006    
  0.65            0.35            8.3988e-005     9.4944e-006    
  0.66            0.36            0.00012058      1.1664e-005    
  0.67            0.37            0.00017286      1.4504e-005    
  0.68            0.38            0.00024542      1.8148e-005    
  0.69            0.39            0.00034684      2.2828e-005    
  0.7             0.4             0.00048714      2.8828e-005    
  0.71            0.41            0.00067862      3.6454e-005    
  0.72            0.42            0.00093576      4.6106e-005    
  0.73            0.43            0.0012736       5.799e-005     
  0.74            0.44            0.0017018       7.2358e-005    
  0.75            0.45            0.0022314       8.945e-005     
  0.76            0.46            0.0028704       0.000109436    
  0.77            0.47            0.0036062       0.00013194     
  0.78            0.48            0.0044382       0.00015716     
  0.79            0.49            0.0053576       0.00018494     
  0.8             0.5             0.006358        0.00021532     
  0.81            0.51            0.007431        0.00024826     
  0.82            0.52            0.008573        0.00028432     
END_DB

