! VERSION = 6.00
!Measured by: Marcus Mueller on Fri Nov 16 09:33:09 WEST 2018
!TECHNOLOGY: Teledyne
!WAFER: w096
!DIE Nr.: y
!TRANSISTOR Name: 0p25x10x1_full
!Emitter size: 0.25x10
!Configuration: CBE
!Temperature: 298
BEGIN_HEADER
 ICCAP_INPUTS
  vb         V  B GROUND SMU_B 0.003 LIN        1    0.3        0.82       53   0.01      
  vc         V  C GROUND SMU_C 0.0375 SYNC       1 0.5 vb
  ve         V  E GROUND GND 0 CON        0
  vs         V  S GROUND GND 0 CON        0
 ICCAP_OUTPUTS
  ic         I  C GROUND SMU_C B
  ib         I  B GROUND SMU_B B
 ICCAP_VALUES
  MEAS_BY "Marcus Mueller"
  TECH "Teledyne"
  WAFER "w096"
  DIE "y"
  TRAN "0p25x10x1_full"
  WIDTH "0.25"
  LENGTH "10"
  CONFIG "CBE"
  TEMP "298"
END_HEADER

BEGIN_DB
 ICCAP_VAR ve         0              
 ICCAP_VAR vs         0              

 #vb              vc              ic              ib             
  0.3             0.8             2.9844e-007     -2.7728e-007   
  0.31            0.81            2.8668e-007     -2.774e-007    
  0.32            0.82            2.8494e-007     -2.7684e-007   
  0.33            0.83            2.8392e-007     -2.7594e-007   
  0.34            0.84            2.8228e-007     -2.751e-007    
  0.35            0.85            2.8196e-007     -2.7446e-007   
  0.36            0.86            2.8336e-007     -2.7282e-007   
  0.37            0.87            2.8356e-007     -2.7094e-007   
  0.38            0.88            2.8328e-007     -2.6844e-007   
  0.39            0.89            2.8552e-007     -2.6546e-007   
  0.4             0.9             2.8742e-007     -2.6184e-007   
  0.41            0.91            2.8928e-007     -2.573e-007    
  0.42            0.92            2.9456e-007     -2.5168e-007   
  0.43            0.93            2.9968e-007     -2.4402e-007   
  0.44            0.94            3.1128e-007     -2.3514e-007   
  0.45            0.95            3.2288e-007     -2.229e-007    
  0.46            0.96            3.4386e-007     -2.0744e-007   
  0.47            0.97            3.6988e-007     -1.8848e-007   
  0.48            0.98            4.1156e-007     -1.6454e-007   
  0.49            0.99            4.7014e-007     -1.3424e-007   
  0.5             1               5.5796e-007     -9.4234e-008   
  0.51            1.01            6.8724e-007     -4.4266e-008   
  0.52            1.02            8.634e-007      1.9414e-008    
  0.53            1.03            1.1718e-006     1.01548e-007   
  0.54            1.04            1.5872e-006     2.0524e-007    
  0.55            1.05            2.2014e-006     3.4008e-007    
  0.56            1.06            3.105e-006      5.1212e-007    
  0.57            1.07            4.4364e-006     7.3252e-007    
  0.58            1.08            6.398e-006      1.01774e-006   
  0.59            1.09            9.3316e-006     1.3872e-006    
  0.6             1.1             1.3634e-005     1.862e-006     
  0.61            1.11            1.9692e-005     2.4724e-006    
  0.62            1.12            2.8516e-005     3.2578e-006    
  0.63            1.13            4.143e-005      4.2708e-006    
  0.64            1.14            5.9582e-005     5.583e-006     
  0.65            1.15            8.551e-005      7.285e-006     
  0.66            1.16            0.00012212      9.4938e-006    
  0.67            1.17            0.00017472      1.2388e-005    
  0.68            1.18            0.00024804      1.6086e-005    
  0.69            1.19            0.00035148      2.0924e-005    
  0.7             1.2             0.00049606      2.7192e-005    
  0.71            1.21            0.00069542      3.5254e-005    
  0.72            1.22            0.0009674       4.5564e-005    
  0.73            1.23            0.0013296       5.8538e-005    
  0.74            1.24            0.0017972       7.4588e-005    
  0.75            1.25            0.0023844       9.3982e-005    
  0.76            1.26            0.0031034       0.00011718     
  0.77            1.27            0.003945        0.00014364     
  0.78            1.28            0.004912        0.00017378     
  0.79            1.29            0.0060028       0.00020754     
  0.8             1.3             0.0071996       0.00024496     
  0.81            1.31            0.008513        0.00028614     
  0.82            1.32            0.0099428       0.00033196     
END_DB

