! VERSION = 6.00
!Measured by: Marcus Mueller on Fri Nov 16 09:32:46 WEST 2018
!TECHNOLOGY: Teledyne
!WAFER: w096
!DIE Nr.: y
!TRANSISTOR Name: 0p25x10x1_full
!Emitter size: 0.25x10
!Configuration: CBE
!Temperature: 298
BEGIN_HEADER
 ICCAP_INPUTS
  vb         V  B GROUND SMU_B 0.003 LIN        1    0.3        0.82       53   0.01      
  vc         V  C GROUND SMU_C 0.0375 SYNC       1 0.1 vb
  ve         V  E GROUND GND 0 CON        0
  vs         V  S GROUND GND 0 CON        0
 ICCAP_OUTPUTS
  ic         I  C GROUND SMU_C B
  ib         I  B GROUND SMU_B B
 ICCAP_VALUES
  MEAS_BY "Marcus Mueller"
  TECH "Teledyne"
  WAFER "w096"
  DIE "y"
  TRAN "0p25x10x1_full"
  WIDTH "0.25"
  LENGTH "10"
  CONFIG "CBE"
  TEMP "298"
END_HEADER

BEGIN_DB
 ICCAP_VAR ve         0              
 ICCAP_VAR vs         0              

 #vb              vc              ic              ib             
  0.3             0.4             6.8444e-008     -5.9724e-008   
  0.31            0.41            1.2384e-007     -5.9024e-008   
  0.32            0.42            1.2834e-007     -5.8674e-008   
  0.33            0.43            6.7362e-008     -5.7724e-008   
  0.34            0.44            1.33e-007       -5.6696e-008   
  0.35            0.45            6.5184e-008     -5.5334e-008   
  0.36            0.46            6.8138e-008     -5.3806e-008   
  0.37            0.47            6.9322e-008     -5.1996e-008   
  0.38            0.48            1.3886e-007     -4.9618e-008   
  0.39            0.49            1.2346e-007     -4.667e-008    
  0.4             0.5             1.2162e-007     -4.2906e-008   
  0.41            0.51            1.3708e-007     -3.833e-008    
  0.42            0.52            1.5082e-007     -3.235e-008    
  0.43            0.53            1.5542e-007     -2.5084e-008   
  0.44            0.54            9.284e-008      -1.5742e-008   
  0.45            0.55            1.0694e-007     -3.824e-009    
  0.46            0.56            1.2668e-007     1.08664e-008   
  0.47            0.57            1.5516e-007     2.9432e-008    
  0.48            0.58            1.9846e-007     5.2882e-008    
  0.49            0.59            2.5774e-007     8.3382e-008    
  0.5             0.6             3.461e-007      1.2104e-007    
  0.51            0.61            4.7916e-007     1.6992e-007    
  0.52            0.62            6.6976e-007     2.3174e-007    
  0.53            0.63            9.8164e-007     3.0986e-007    
  0.54            0.64            1.3896e-006     4.112e-007     
  0.55            0.65            2.0106e-006     5.3914e-007    
  0.56            0.66            2.9262e-006     7.0632e-007    
  0.57            0.67            4.2698e-006     9.2088e-007    
  0.58            0.68            6.2444e-006     1.1986e-006    
  0.59            0.69            9.2226e-006     1.5616e-006    
  0.6             0.7             1.355e-005      2.0262e-006    
  0.61            0.71            1.9612e-005     2.6298e-006    
  0.62            0.72            2.8508e-005     3.4146e-006    
  0.63            0.73            4.129e-005      4.4296e-006    
  0.64            0.74            5.9456e-005     5.7368e-006    
  0.65            0.75            8.5324e-005     7.4346e-006    
  0.66            0.76            0.00012178      9.6286e-006    
  0.67            0.77            0.00017388      1.2514e-005    
  0.68            0.78            0.00024656      1.6214e-005    
  0.69            0.79            0.00034858      2.1e-005       
  0.7             0.8             0.00049038      2.7182e-005    
  0.71            0.81            0.00068526      3.5044e-005    
  0.72            0.82            0.00094874      4.501e-005     
  0.73            0.83            0.001296        5.7436e-005    
  0.74            0.84            0.0017428       7.2616e-005    
  0.75            0.85            0.0022972       9.064e-005     
  0.76            0.86            0.002972        0.000111858    
  0.77            0.87            0.0037548       0.00013596     
  0.78            0.88            0.0046464       0.00016294     
  0.79            0.89            0.005639        0.00019268     
  0.8             0.9             0.0067222       0.00022542     
  0.81            0.91            0.0078952       0.00026086     
  0.82            0.92            0.0091586       0.00029938     
END_DB

