! VERSION = 6.00
!Measured by: Marcus Mueller on Fri Nov 16 09:32:52 WEST 2018
!TECHNOLOGY: Teledyne
!WAFER: w096
!DIE Nr.: y
!TRANSISTOR Name: 0p25x10x1_full
!Emitter size: 0.25x10
!Configuration: CBE
!Temperature: 298
BEGIN_HEADER
 ICCAP_INPUTS
  vb         V  B GROUND SMU_B 0.003 LIN        1    0.3        0.82       53   0.01      
  vc         V  C GROUND SMU_C 0.0375 SYNC       1 0.2 vb
  ve         V  E GROUND GND 0 CON        0
  vs         V  S GROUND GND 0 CON        0
 ICCAP_OUTPUTS
  ic         I  C GROUND SMU_C B
  ib         I  B GROUND SMU_B B
 ICCAP_VALUES
  MEAS_BY "Marcus Mueller"
  TECH "Teledyne"
  WAFER "w096"
  DIE "y"
  TRAN "0p25x10x1_full"
  WIDTH "0.25"
  LENGTH "10"
  CONFIG "CBE"
  TEMP "298"
END_HEADER

BEGIN_DB
 ICCAP_VAR ve         0              
 ICCAP_VAR vs         0              

 #vb              vc              ic              ib             
  0.3             0.5             1.4056e-007     -1.2352e-007   
  0.31            0.51            1.3244e-007     -1.2294e-007   
  0.32            0.52            1.2986e-007     -1.2258e-007   
  0.33            0.53            1.3088e-007     -1.219e-007    
  0.34            0.54            1.3022e-007     -1.2084e-007   
  0.35            0.55            1.3096e-007     -1.1946e-007   
  0.36            0.56            1.3004e-007     -1.1834e-007   
  0.37            0.57            1.3226e-007     -1.1626e-007   
  0.38            0.58            1.32e-007       -1.142e-007    
  0.39            0.59            1.3458e-007     -1.1134e-007   
  0.4             0.6             1.3544e-007     -1.0696e-007   
  0.41            0.61            1.3962e-007     -1.0252e-007   
  0.42            0.62            1.4428e-007     -9.6708e-008   
  0.43            0.63            1.4988e-007     -8.93e-008     
  0.44            0.64            1.5938e-007     -7.9808e-008   
  0.45            0.65            1.7254e-007     -6.8112e-008   
  0.46            0.66            1.8952e-007     -5.35e-008     
  0.47            0.67            2.2046e-007     -3.4222e-008   
  0.48            0.68            2.5778e-007     -1.0682e-008   
  0.49            0.69            3.204e-007      1.989e-008     
  0.5             0.7             4.0752e-007     5.8846e-008    
  0.51            0.71            5.3662e-007     1.07558e-007   
  0.52            0.72            7.2722e-007     1.7002e-007    
  0.53            0.73            1.0784e-006     2.501e-007     
  0.54            0.74            1.4418e-006     3.5388e-007    
  0.55            0.75            2.0604e-006     4.856e-007     
  0.56            0.76            2.9694e-006     6.5304e-007    
  0.57            0.77            4.307e-006      8.7086e-007    
  0.58            0.78            6.271e-006      1.1522e-006    
  0.59            0.79            9.692e-006      1.5172e-006    
  0.6             0.8             1.343e-005      1.988e-006     
  0.61            0.81            1.9602e-005     2.595e-006     
  0.62            0.82            2.8488e-005     3.3802e-006    
  0.63            0.83            4.1276e-005     4.3972e-006    
  0.64            0.84            5.9366e-005     5.7106e-006    
  0.65            0.85            8.5208e-005     7.415e-006     
  0.66            0.86            0.00012166      9.6204e-006    
  0.67            0.87            0.00017384      1.2512e-005    
  0.68            0.88            0.00024672      1.6232e-005    
  0.69            0.89            0.00034874      2.1042e-005    
  0.7             0.9             0.0004912       2.7274e-005    
  0.71            0.91            0.0006868       3.5216e-005    
  0.72            0.92            0.00095238      4.5294e-005    
  0.73            0.93            0.0013036       5.7856e-005    
  0.74            0.94            0.001754        7.3244e-005    
  0.75            0.95            0.0023158       9.1664e-005    
  0.76            0.96            0.0030002       0.000113366    
  0.77            0.97            0.0037958       0.00013792     
  0.78            0.98            0.0047028       0.00016564     
  0.79            0.99            0.0057166       0.00019632     
  0.8             1               0.0068266       0.00022996     
  0.81            1.01            0.0080298       0.00026654     
  0.82            1.02            0.009329        0.00030678     
END_DB

