! VERSION = 6.00
!Measured by: Marcus Mueller on Fri Nov 16 09:32:29 WEST 2018
!TECHNOLOGY: Teledyne
!WAFER: w096
!DIE Nr.: y
!TRANSISTOR Name: 0p25x10x1_full
!Emitter size: 0.25x10
!Configuration: CBE
!Temperature: 298
BEGIN_HEADER
 ICCAP_INPUTS
  vb         V  B GROUND SMU_B 0.003 LIN        1    0.3        0.82       53   0.01      
  vc         V  C GROUND SMU_C 0.0375 SYNC       1 -0.1 vb
  ve         V  E GROUND GND 0 CON        0
  vs         V  S GROUND GND 0 CON        0
 ICCAP_OUTPUTS
  ic         I  C GROUND SMU_C B
  ib         I  B GROUND SMU_B B
 ICCAP_VALUES
  MEAS_BY "Marcus Mueller"
  TECH "Teledyne"
  WAFER "w096"
  DIE "y"
  TRAN "0p25x10x1_full"
  WIDTH "0.25"
  LENGTH "10"
  CONFIG "CBE"
  TEMP "298"
END_HEADER

BEGIN_DB
 ICCAP_VAR ve         0              
 ICCAP_VAR vs         0              

 #vb              vc              ic              ib             
  0.3             0.2             -1.0458e-007    1.1524e-007    
  0.31            0.21            -1.053e-007     1.1606e-007    
  0.32            0.22            -1.0908e-007    1.1664e-007    
  0.33            0.23            -1.0744e-007    1.1716e-007    
  0.34            0.24            -1.0524e-007    1.1862e-007    
  0.35            0.25            -1.0476e-007    1.1984e-007    
  0.36            0.26            -1.047e-007     1.2172e-007    
  0.37            0.27            -1.0522e-007    1.2354e-007    
  0.38            0.28            -1.0306e-007    1.2554e-007    
  0.39            0.29            -1.044e-007     1.288e-007     
  0.4             0.3             -1.0088e-007    1.3322e-007    
  0.41            0.31            -9.706e-008     1.3746e-007    
  0.42            0.32            -9.484e-008     1.4336e-007    
  0.43            0.33            -1.8592e-007    1.508e-007     
  0.44            0.34            -8.2668e-008    1.5996e-007    
  0.45            0.35            -7.2166e-008    1.7224e-007    
  0.46            0.36            -4.8882e-008    1.8678e-007    
  0.47            0.37            -1.7938e-008    2.0564e-007    
  0.48            0.38            2.3896e-008     2.2946e-007    
  0.49            0.39            8.7366e-008     2.592e-007     
  0.5             0.4             1.7854e-007     2.9766e-007    
  0.51            0.41            3.091e-007      3.4662e-007    
  0.52            0.42            5.0588e-007     4.0774e-007    
  0.53            0.43            8.0438e-007     4.861e-007     
  0.54            0.44            1.2282e-006     5.856e-007     
  0.55            0.45            1.857e-006      7.142e-007     
  0.56            0.46            2.7788e-006     8.8006e-007    
  0.57            0.47            4.1382e-006     1.0943e-006    
  0.58            0.48            6.1298e-006     1.3666e-006    
  0.59            0.49            9.0988e-006     1.7272e-006    
  0.6             0.5             1.3406e-005     2.1892e-006    
  0.61            0.51            1.9564e-005     2.7876e-006    
  0.62            0.52            2.8558e-005     3.561e-006     
  0.63            0.53            4.1466e-005     4.5626e-006    
  0.64            0.54            5.9738e-005     5.8628e-006    
  0.65            0.55            8.577e-005      7.5426e-006    
  0.66            0.56            0.00012232      9.732e-006     
  0.67            0.57            0.00017476      1.2568e-005    
  0.68            0.58            0.00024758      1.6218e-005    
  0.69            0.59            0.00034942      2.092e-005     
  0.7             0.6             0.00049096      2.699e-005     
  0.71            0.61            0.00068432      3.4694e-005    
  0.72            0.62            0.00094496      4.4414e-005    
  0.73            0.63            0.001287        5.6484e-005    
  0.74            0.64            0.001725        7.1116e-005    
  0.75            0.65            0.002268        8.8476e-005    
  0.76            0.66            0.0029242       0.000108892    
  0.77            0.67            0.003681        0.00013186     
  0.78            0.68            0.0045414       0.0001576      
  0.79            0.69            0.0054972       0.00018594     
  0.8             0.7             0.006537        0.00021698     
  0.81            0.71            0.0076568       0.00025056     
  0.82            0.72            0.0088588       0.00028702     
END_DB

