! VERSION = 6.00
!Measured by: Marcus Mueller on Fri Nov 16 09:32:17 WEST 2018
!TECHNOLOGY: Teledyne
!WAFER: w096
!DIE Nr.: y
!TRANSISTOR Name: 0p25x10x1_full
!Emitter size: 0.25x10
!Configuration: CBE
!Temperature: 298
BEGIN_HEADER
 ICCAP_INPUTS
  vb         V  B GROUND SMU_B 0.003 LIN        1    0.3        0.82       53   0.01      
  vc         V  C GROUND SMU_C 0.0375 SYNC       1 -0.25 vb
  ve         V  E GROUND GND 0 CON        0
  vs         V  S GROUND GND 0 CON        0
 ICCAP_OUTPUTS
  ic         I  C GROUND SMU_C B
  ib         I  B GROUND SMU_B B
 ICCAP_VALUES
  MEAS_BY "Marcus Mueller"
  TECH "Teledyne"
  WAFER "w096"
  DIE "y"
  TRAN "0p25x10x1_full"
  WIDTH "0.25"
  LENGTH "10"
  CONFIG "CBE"
  TEMP "298"
END_HEADER

BEGIN_DB
 ICCAP_VAR ve         0              
 ICCAP_VAR vs         0              

 #vb              vc              ic              ib             
  0.3             0.05            -9.548e-007     9.8724e-007    
  0.31            0.06            -9.494e-007     9.867e-007     
  0.32            0.07            -9.48e-007      9.8728e-007    
  0.33            0.08            -9.506e-007     9.873e-007     
  0.34            0.09            -9.466e-007     9.9024e-007    
  0.35            0.1             -9.448e-007     9.9018e-007    
  0.36            0.11            -9.464e-007     9.9162e-007    
  0.37            0.12            -9.49e-007      9.962e-007     
  0.38            0.13            -9.468e-007     9.9982e-007    
  0.39            0.14            -9.434e-007     1.00092e-006   
  0.4             0.15            -9.44e-007      1.00634e-006   
  0.41            0.16            -9.354e-007     1.01206e-006   
  0.42            0.17            -9.378e-007     1.01664e-006   
  0.43            0.18            -9.264e-007     1.02502e-006   
  0.44            0.19            -9.218e-007     1.03324e-006   
  0.45            0.2             -9.05e-007      1.04816e-006   
  0.46            0.21            -8.894e-007     1.06136e-006   
  0.47            0.22            -8.59e-007      1.07756e-006   
  0.48            0.23            -8.12e-007      1.10192e-006   
  0.49            0.24            -7.7436e-007    1.13336e-006   
  0.5             0.25            -6.809e-007     1.1726e-006    
  0.51            0.26            -5.4802e-007    1.2234e-006    
  0.52            0.27            -3.513e-007     1.2854e-006    
  0.53            0.28            -6.8784e-008    1.3608e-006    
  0.54            0.29            3.5584e-007     1.4618e-006    
  0.55            0.3             1.0294e-006     1.5896e-006    
  0.56            0.31            1.9166e-006     1.7574e-006    
  0.57            0.32            3.2828e-006     1.9674e-006    
  0.58            0.33            5.2848e-006     2.2426e-006    
  0.59            0.34            8.2398e-006     2.5986e-006    
  0.6             0.35            1.265e-005      3.0628e-006    
  0.61            0.36            1.874e-005      3.6576e-006    
  0.62            0.37            2.7798e-005     4.4268e-006    
  0.63            0.38            4.0714e-005     5.4362e-006    
  0.64            0.39            5.9086e-005     6.7314e-006    
  0.65            0.4             8.513e-005      8.4078e-006    
  0.66            0.41            0.00012178      1.05764e-005   
  0.67            0.42            0.00017416      1.3424e-005    
  0.68            0.43            0.0002468       1.7046e-005    
  0.69            0.44            0.0003482       2.1716e-005    
  0.7             0.45            0.00048922      2.7724e-005    
  0.71            0.46            0.00068122      3.5354e-005    
  0.72            0.47            0.00093942      4.4926e-005    
  0.73            0.48            0.0012782       5.6832e-005    
  0.74            0.49            0.0017096       7.1208e-005    
  0.75            0.5             0.0022416       8.8308e-005    
  0.76            0.51            0.0028848       0.00010827     
  0.77            0.52            0.0036278       0.00013078     
  0.78            0.53            0.004466        0.00015592     
  0.79            0.54            0.0053942       0.00018372     
  0.8             0.55            0.0064032       0.00021388     
  0.81            0.56            0.0074884       0.00024678     
  0.82            0.57            0.0086432       0.00028252     
END_DB

