! VERSION = 6.00
!Measured by: Marcus Mueller on Fri Nov 16 09:32:05 WEST 2018
!TECHNOLOGY: Teledyne
!WAFER: w096
!DIE Nr.: y
!TRANSISTOR Name: 0p25x10x1_full
!Emitter size: 0.25x10
!Configuration: CBE
!Temperature: 298
BEGIN_HEADER
 ICCAP_INPUTS
  vb         V  B GROUND SMU_B 0.003 LIN        1    0.3        0.82       53   0.01      
  vc         V  C GROUND SMU_C 0.0375 SYNC       1 -0.5 vb
  ve         V  E GROUND GND 0 CON        0
  vs         V  S GROUND GND 0 CON        0
 ICCAP_OUTPUTS
  ic         I  C GROUND SMU_C B
  ib         I  B GROUND SMU_B B
 ICCAP_VALUES
  MEAS_BY "Marcus Mueller"
  TECH "Teledyne"
  WAFER "w096"
  DIE "y"
  TRAN "0p25x10x1_full"
  WIDTH "0.25"
  LENGTH "10"
  CONFIG "CBE"
  TEMP "298"
END_HEADER

BEGIN_DB
 ICCAP_VAR ve         0              
 ICCAP_VAR vs         0              

 #vb              vc              ic              ib             
  0.3             -0.2            -5.8056e-005    5.7776e-005    
  0.31            -0.19           -5.7946e-005    5.7644e-005    
  0.32            -0.18           -5.8078e-005    5.7714e-005    
  0.33            -0.17           -5.8012e-005    5.767e-005     
  0.34            -0.16           -5.7876e-005    5.761e-005     
  0.35            -0.15           -5.7914e-005    5.76e-005      
  0.36            -0.14           -5.7968e-005    5.7642e-005    
  0.37            -0.13           -5.7978e-005    5.761e-005     
  0.38            -0.12           -5.7938e-005    5.7668e-005    
  0.39            -0.11           -5.784e-005     5.7554e-005    
  0.4             -0.1            -5.7952e-005    5.7644e-005    
  0.41            -0.09           -5.7958e-005    5.7664e-005    
  0.42            -0.08           -5.7948e-005    5.7664e-005    
  0.43            -0.07           -5.7896e-005    5.7592e-005    
  0.44            -0.06           -5.7812e-005    5.7578e-005    
  0.45            -0.05           -5.7858e-005    5.7628e-005    
  0.46            -0.04           -5.7854e-005    5.7696e-005    
  0.47            -0.03           -5.7676e-005    5.7582e-005    
  0.48            -0.02           -5.7584e-005    5.7538e-005    
  0.49            -0.01           -5.7554e-005    5.7572e-005    
  0.5             0               -5.7528e-005    5.7722e-005    
  0.51            0.01            -5.7384e-005    5.7746e-005    
  0.52            0.02            -5.7116e-005    5.774e-005     
  0.53            0.03            -5.6818e-005    5.783e-005     
  0.54            0.04            -5.6488e-005    5.7922e-005    
  0.55            0.05            -5.583e-005     5.8138e-005    
  0.56            0.06            -5.4866e-005    5.822e-005     
  0.57            0.07            -5.3486e-005    5.846e-005     
  0.58            0.08            -5.1524e-005    5.8776e-005    
  0.59            0.09            -4.869e-005     5.9266e-005    
  0.6             0.1             -4.4322e-005    5.9646e-005    
  0.61            0.11            -3.824e-005     6.0294e-005    
  0.62            0.12            -2.9276e-005    6.1132e-005    
  0.63            0.13            -1.6508e-005    6.2214e-005    
  0.64            0.14            1.586e-006      6.3606e-005    
  0.65            0.15            2.7358e-005     6.5356e-005    
  0.66            0.16            6.346e-005      6.7778e-005    
  0.67            0.17            0.0001147       7.1078e-005    
  0.68            0.18            0.00018576      7.5156e-005    
  0.69            0.19            0.00028478      8.0436e-005    
  0.7             0.2             0.00042176      8.7386e-005    
  0.71            0.21            0.00060764      9.6238e-005    
  0.72            0.22            0.000857        0.000107646    
  0.73            0.23            0.0011818       0.00012182     
  0.74            0.24            0.0015952       0.00013938     
  0.75            0.25            0.0021022       0.0001607      
  0.76            0.26            0.0027122       0.0001864      
  0.77            0.27            0.0034116       0.00021616     
  0.78            0.28            0.004199        0.00025054     
  0.79            0.29            0.0050626       0.0002907      
  0.8             0.3             0.0059928       0.00033754     
  0.81            0.31            0.0069764       0.00039316     
  0.82            0.32            0.0080128       0.00046118     
END_DB

