! VERSION = 6.00
!Measured by: Marcus Mueller on Fri Nov 16 09:35:03 WEST 2018
!TECHNOLOGY: Teledyne
!WAFER: w096
!DIE Nr.: y
!TRANSISTOR Name: 0p25x10x1_full
!Emitter size: 0.25x10
!Configuration: CBE
!Temperature: 298
BEGIN_HEADER
 ICCAP_INPUTS
  vc         V  C GROUND SMU_C 0.0375 LIN        1    0          1.8        73   0.025     
  ve         V  E GROUND GND 0 CON        0
  vs         V  S GROUND GND 0 CON        0
  ib         I  B GROUND SMU_B 0.83 LIN        2    1e-006     0.000351   15   2.5e-005  
 ICCAP_OUTPUTS
  ic         I  C GROUND SMU_C B
  vb         V  B GROUND SMU_B B
 ICCAP_VALUES
  MEAS_BY "Marcus Mueller"
  TECH "Teledyne"
  WAFER "w096"
  DIE "y"
  TRAN "0p25x10x1_full"
  WIDTH "0.25"
  LENGTH "10"
  CONFIG "CBE"
  TEMP "298"
END_HEADER

BEGIN_DB
 ICCAP_VAR ve         0              
 ICCAP_VAR vs         0              
 ICCAP_VAR ib         1e-006         

 #vc              ic              vb             
  0               -1.0492e-006    0.25024        
  0.025           -1.0434e-006    0.2754         
  0.05            -9.514e-007     0.30024        
  0.075           -9.448e-007     0.3252         
  0.1             -9.42e-007      0.3502         
  0.125           -9.34e-007      0.375          
  0.15            -9.23e-007      0.39956        
  0.175           -9.028e-007     0.42352        
  0.2             -8.758e-007     0.4468         
  0.225           -8.2044e-007    0.46912        
  0.25            -6.4284e-007    0.48992        
  0.275           -3.7082e-007    0.50832        
  0.3             4.1662e-008     0.52396        
  0.325           5.962e-007      0.53652        
  0.35            1.2396e-006     0.54612        
  0.375           1.8712e-006     0.55328        
  0.4             2.46e-006       0.55856        
  0.425           2.9594e-006     0.56236        
  0.45            3.383e-006      0.56516        
  0.475           3.706e-006      0.56728        
  0.5             3.9668e-006     0.56876        
  0.525           4.1714e-006     0.56992        
  0.55            4.3368e-006     0.5708         
  0.575           4.4796e-006     0.57152        
  0.6             4.6076e-006     0.57216        
  0.625           4.7168e-006     0.5728         
  0.65            4.827e-006      0.57332        
  0.675           4.9286e-006     0.57384        
  0.7             5.0136e-006     0.57432        
  0.725           5.1082e-006     0.57472        
  0.75            5.207e-006      0.5752         
  0.775           5.2952e-006     0.57556        
  0.8             5.3686e-006     0.57596        
  0.825           5.4402e-006     0.57624        
  0.85            5.5182e-006     0.57656        
  0.875           5.6022e-006     0.57692        
  0.9             5.6842e-006     0.57728        
  0.925           5.7714e-006     0.5776         
  0.95            5.8588e-006     0.57788        
  0.975           5.9554e-006     0.57836        
  1               6.0498e-006     0.57876        
  1.025           6.1542e-006     0.57908        
  1.05            6.2616e-006     0.57952        
  1.075           6.384e-006      0.57996        
  1.1             6.4928e-006     0.5804         
  1.125           6.6078e-006     0.58088        
  1.15            6.743e-006      0.58132        
  1.175           6.887e-006      0.58172        
  1.2             7.0078e-006     0.58228        
  1.225           7.1374e-006     0.58268        
  1.25            7.2956e-006     0.58312        
  1.275           7.4446e-006     0.5836         
  1.3             7.6132e-006     0.58416        
  1.325           7.7582e-006     0.58468        
  1.35            7.9208e-006     0.5852         
  1.375           8.084e-006      0.58568        
  1.4             8.2422e-006     0.5862         
  1.425           8.4116e-006     0.58664        
  1.45            8.5782e-006     0.58708        
  1.475           8.7364e-006     0.58752        
  1.5             8.9346e-006     0.58804        
  1.525           9.1224e-006     0.58856        
  1.55            9.3134e-006     0.58904        
  1.575           9.4776e-006     0.58952        
  1.6             9.6522e-006     0.58992        
  1.625           9.8288e-006     0.5904         
  1.65            1.0006e-005     0.59084        
  1.675           1.0136e-005     0.59132        
  1.7             1.042e-005      0.59172        
  1.725           1.0522e-005     0.5922         
  1.75            1.0744e-005     0.59264        
  1.775           1.0998e-005     0.59308        
  1.8             1.1132e-005     0.59348        
END_DB

BEGIN_DB
 ICCAP_VAR ve         0              
 ICCAP_VAR vs         0              
 ICCAP_VAR ib         2.6e-005       

 #vc              ic              vb             
  0               -2.6158e-005    0.4554         
  0.025           -2.5848e-005    0.48064        
  0.05            -2.5488e-005    0.50544        
  0.075           -2.4778e-005    0.53008        
  0.1             -2.3028e-005    0.55448        
  0.125           -1.9116e-005    0.57816        
  0.15            -1.00424e-005   0.60088        
  0.175           8.359e-006      0.62192        
  0.2             4.122e-005      0.64076        
  0.225           9.0598e-005     0.65644        
  0.25            0.00015292      0.66884        
  0.275           0.00021928      0.67804        
  0.3             0.00028116      0.68464        
  0.325           0.00033324      0.68928        
  0.35            0.00037332      0.6924         
  0.375           0.00040366      0.69456        
  0.4             0.00042544      0.69604        
  0.425           0.00044108      0.69704        
  0.45            0.00045128      0.69772        
  0.475           0.00045824      0.69812        
  0.5             0.00046316      0.6984         
  0.525           0.000466        0.6986         
  0.55            0.00046712      0.69868        
  0.575           0.00046864      0.69872        
  0.6             0.000469        0.69876        
  0.625           0.0004689       0.69876        
  0.65            0.00046842      0.69872        
  0.675           0.00046804      0.69872        
  0.7             0.00046716      0.69868        
  0.725           0.00046656      0.6986         
  0.75            0.00046588      0.69856        
  0.775           0.00046538      0.69856        
  0.8             0.0004647       0.69852        
  0.825           0.00046406      0.69848        
  0.85            0.00046392      0.69844        
  0.875           0.00046366      0.69844        
  0.9             0.00046366      0.69844        
  0.925           0.0004643       0.69848        
  0.95            0.00046442      0.69844        
  0.975           0.00046454      0.69844        
  1               0.00046508      0.69844        
  1.025           0.00046586      0.69848        
  1.05            0.0004665       0.69848        
  1.075           0.00046708      0.69848        
  1.1             0.00046712      0.69848        
  1.125           0.00046768      0.69848        
  1.15            0.00046788      0.69848        
  1.175           0.000469        0.69848        
  1.2             0.00046914      0.69852        
  1.225           0.00046964      0.69852        
  1.25            0.00047014      0.69852        
  1.275           0.00047072      0.69852        
  1.3             0.00047186      0.69856        
  1.325           0.00047206      0.6986         
  1.35            0.00047266      0.6986         
  1.375           0.00047298      0.69856        
  1.4             0.00047336      0.6986         
  1.425           0.00047378      0.69856        
  1.45            0.0004743       0.6986         
  1.475           0.00047508      0.6986         
  1.5             0.00047584      0.69864        
  1.525           0.0004763       0.69864        
  1.55            0.00047654      0.69864        
  1.575           0.00047748      0.69864        
  1.6             0.00047804      0.69864        
  1.625           0.00047892      0.69864        
  1.65            0.00047936      0.69868        
  1.675           0.00047928      0.69868        
  1.7             0.00047992      0.69868        
  1.725           0.00048046      0.69868        
  1.75            0.0004805       0.69868        
  1.775           0.00048124      0.69868        
  1.8             0.00048172      0.69872        
END_DB

BEGIN_DB
 ICCAP_VAR ve         0              
 ICCAP_VAR vs         0              
 ICCAP_VAR ib         5.1e-005       

 #vc              ic              vb             
  0               -5.1164e-005    0.4934         
  0.025           -5.0448e-005    0.51856        
  0.05            -4.9264e-005    0.54328        
  0.075           -4.6458e-005    0.56788        
  0.1             -3.976e-005     0.59192        
  0.125           -2.4414e-005    0.61516        
  0.15            8.0288e-006     0.63724        
  0.175           6.839e-005      0.65724        
  0.2             0.00016606      0.6746         
  0.225           0.00029922      0.68872        
  0.25            0.00045346      0.69964        
  0.275           0.00060764      0.70772        
  0.3             0.00074406      0.71356        
  0.325           0.00085478      0.7176         
  0.35            0.00093918      0.72044        
  0.375           0.00100168      0.72236        
  0.4             0.00104622      0.72368        
  0.425           0.0010773       0.72456        
  0.45            0.00109908      0.72516        
  0.475           0.00111332      0.72552        
  0.5             0.00112282      0.72572        
  0.525           0.0011288       0.72588        
  0.55            0.0011314       0.72592        
  0.575           0.0011318       0.72592        
  0.6             0.0011332       0.72592        
  0.625           0.001133        0.72588        
  0.65            0.0011318       0.72584        
  0.675           0.0011302       0.72576        
  0.7             0.0011286       0.72572        
  0.725           0.001126        0.7256         
  0.75            0.0011244       0.72552        
  0.775           0.0011222       0.72544        
  0.8             0.0011194       0.72536        
  0.825           0.0011166       0.72524        
  0.85            0.0011156       0.7252         
  0.875           0.0011154       0.7252         
  0.9             0.0011144       0.72512        
  0.925           0.0011136       0.72504        
  0.95            0.0011138       0.72496        
  0.975           0.0011126       0.72496        
  1               0.0011134       0.72496        
  1.025           0.0011142       0.72492        
  1.05            0.0011144       0.72488        
  1.075           0.0011142       0.72484        
  1.1             0.0011156       0.7248         
  1.125           0.001116        0.72476        
  1.15            0.0011168       0.72472        
  1.175           0.0011186       0.72472        
  1.2             0.001118        0.72468        
  1.225           0.0011194       0.72464        
  1.25            0.0011202       0.7246         
  1.275           0.0011208       0.7246         
  1.3             0.0011214       0.7246         
  1.325           0.001122        0.72456        
  1.35            0.0011228       0.72452        
  1.375           0.0011238       0.72448        
  1.4             0.0011248       0.72444        
  1.425           0.0011258       0.72444        
  1.45            0.0011266       0.7244         
  1.475           0.0011262       0.72436        
  1.5             0.001127        0.72432        
  1.525           0.0011288       0.72428        
  1.55            0.0011284       0.72424        
  1.575           0.0011286       0.72424        
  1.6             0.0011296       0.7242         
  1.625           0.0011286       0.72416        
  1.65            0.0011306       0.72408        
  1.675           0.0011302       0.72404        
  1.7             0.001131        0.72404        
  1.725           0.0011314       0.72396        
  1.75            0.0011316       0.72396        
  1.775           0.0011338       0.72392        
  1.8             0.0011328       0.72388        
END_DB

BEGIN_DB
 ICCAP_VAR ve         0              
 ICCAP_VAR vs         0              
 ICCAP_VAR ib         7.6e-005       

 #vc              ic              vb             
  0               -7.6288e-005    0.51552        
  0.025           -7.4742e-005    0.5404         
  0.05            -7.2182e-005    0.56508        
  0.075           -6.602e-005     0.5896         
  0.1             -5.1298e-005    0.6136         
  0.125           -1.881e-005     0.63652        
  0.15            4.6376e-005     0.65812        
  0.175           0.00016116      0.67732        
  0.2             0.00033734      0.6938         
  0.225           0.00056296      0.707          
  0.25            0.00081308      0.71728        
  0.275           0.0010566       0.72504        
  0.3             0.0012684       0.73068        
  0.325           0.001443        0.73484        
  0.35            0.001574        0.73768        
  0.375           0.0016708       0.7396         
  0.4             0.0017428       0.74096        
  0.425           0.00179         0.74188        
  0.45            0.0018258       0.74252        
  0.475           0.0018478       0.74288        
  0.5             0.0018646       0.74316        
  0.525           0.001873        0.74324        
  0.55            0.0018774       0.74328        
  0.575           0.001879        0.74324        
  0.6             0.0018786       0.7432         
  0.625           0.0018776       0.74316        
  0.65            0.0018786       0.74308        
  0.675           0.0018746       0.743          
  0.7             0.0018722       0.74284        
  0.725           0.0018688       0.7428         
  0.75            0.0018654       0.74264        
  0.775           0.0018612       0.74252        
  0.8             0.0018562       0.7424         
  0.825           0.0018526       0.74228        
  0.85            0.0018472       0.74216        
  0.875           0.001846        0.74204        
  0.9             0.001843        0.74192        
  0.925           0.0018424       0.74184        
  0.95            0.001841        0.74176        
  0.975           0.00184         0.74168        
  1               0.001841        0.7416         
  1.025           0.00184         0.74156        
  1.05            0.001839        0.74148        
  1.075           0.001839        0.7414         
  1.1             0.0018384       0.74132        
  1.125           0.0018392       0.7412         
  1.15            0.0018404       0.7412         
  1.175           0.0018418       0.74116        
  1.2             0.001842        0.74108        
  1.225           0.001842        0.741          
  1.25            0.0018424       0.74092        
  1.275           0.0018434       0.74084        
  1.3             0.0018444       0.7408         
  1.325           0.0018448       0.74072        
  1.35            0.0018454       0.74068        
  1.375           0.0018464       0.7406         
  1.4             0.0018462       0.74056        
  1.425           0.0018472       0.74048        
  1.45            0.0018474       0.7404         
  1.475           0.001849        0.74036        
  1.5             0.00185         0.74028        
  1.525           0.0018492       0.74024        
  1.55            0.0018484       0.74012        
  1.575           0.0018494       0.74004        
  1.6             0.0018498       0.73996        
  1.625           0.0018482       0.73988        
  1.65            0.0018488       0.7398         
  1.675           0.0018488       0.73972        
  1.7             0.0018496       0.73964        
  1.725           0.001849        0.73956        
  1.75            0.0018502       0.73952        
  1.775           0.0018506       0.7394         
  1.8             0.00185         0.73932        
END_DB

BEGIN_DB
 ICCAP_VAR ve         0              
 ICCAP_VAR vs         0              
 ICCAP_VAR ib         0.000101       

 #vc              ic              vb             
  0               -0.00010076     0.531          
  0.025           -9.909e-005     0.55588        
  0.05            -9.4408e-005    0.58048        
  0.075           -8.3544e-005    0.60488        
  0.1             -5.8368e-005    0.62872        
  0.125           -4.647e-006     0.65144        
  0.15            9.9672e-005     0.67256        
  0.175           0.00027628      0.6912         
  0.2             0.00053498      0.70696        
  0.225           0.00085392      0.71968        
  0.25            0.0011972       0.72972        
  0.275           0.0015266       0.73748        
  0.3             0.001815        0.74332        
  0.325           0.0020538       0.7476         
  0.35            0.0022392       0.75068        
  0.375           0.0023752       0.75284        
  0.4             0.0024744       0.75432        
  0.425           0.002544        0.75528        
  0.45            0.0025934       0.75592        
  0.475           0.0026262       0.7564         
  0.5             0.0026498       0.7566         
  0.525           0.0026642       0.7568         
  0.55            0.002674        0.75684        
  0.575           0.0026768       0.75676        
  0.6             0.0026748       0.75668        
  0.625           0.0026734       0.75656        
  0.65            0.0026712       0.75648        
  0.675           0.0026688       0.75636        
  0.7             0.0026642       0.75624        
  0.725           0.002658        0.75608        
  0.75            0.0026544       0.75592        
  0.775           0.0026468       0.75576        
  0.8             0.0026404       0.7556         
  0.825           0.0026344       0.75544        
  0.85            0.002629        0.75528        
  0.875           0.0026238       0.75512        
  0.9             0.0026186       0.75496        
  0.925           0.0026154       0.75484        
  0.95            0.0026128       0.75472        
  0.975           0.0026106       0.75456        
  1               0.0026078       0.75448        
  1.025           0.0026076       0.75432        
  1.05            0.0026064       0.75424        
  1.075           0.0026056       0.75412        
  1.1             0.002603        0.754          
  1.125           0.0026038       0.75392        
  1.15            0.0026046       0.7538         
  1.175           0.0026034       0.75368        
  1.2             0.002604        0.7536         
  1.225           0.0026048       0.75348        
  1.25            0.0026036       0.7534         
  1.275           0.0026024       0.75328        
  1.3             0.002603        0.7532         
  1.325           0.002603        0.75304        
  1.35            0.002603        0.753          
  1.375           0.0026032       0.75284        
  1.4             0.0026018       0.75272        
  1.425           0.002602        0.75264        
  1.45            0.0026044       0.75252        
  1.475           0.002603        0.7524         
  1.5             0.002603        0.75232        
  1.525           0.0026038       0.7522         
  1.55            0.0026028       0.75208        
  1.575           0.002603        0.752          
  1.6             0.002603        0.75188        
