! VERSION = 6.00
!Measured by: Marcus Mueller on Fri Nov 16 09:34:04 WEST 2018
!TECHNOLOGY: Teledyne
!WAFER: w096
!DIE Nr.: y
!TRANSISTOR Name: 0p25x10x1_full
!Emitter size: 0.25x10
!Configuration: CBE
!Temperature: 298
BEGIN_HEADER
 ICCAP_INPUTS
  vc         V  C GROUND SMU_C 0.0375 LIN        1    0          1.8        73   0.025     
  vb         V  B GROUND SMU_B 0.003 LIN        2    0.6        0.8        11   0.02      
  ve         V  E GROUND GND 0 CON        0
  vs         V  S GROUND GND 0 CON        0
 ICCAP_OUTPUTS
  ic         I  C GROUND SMU_C B
  ib         I  B GROUND SMU_B B
 ICCAP_VALUES
  MEAS_BY "Marcus Mueller"
  TECH "Teledyne"
  WAFER "w096"
  DIE "y"
  TRAN "0p25x10x1_full"
  WIDTH "0.25"
  LENGTH "10"
  CONFIG "CBE"
  TEMP "298"
END_HEADER

BEGIN_DB
 ICCAP_VAR vb         0.6            
 ICCAP_VAR ve         0              
 ICCAP_VAR vs         0              

 #vc              ic              ib             
  0               -0.000365       0.00036804     
  0.025           -0.00022036     0.00023068     
  0.05            -0.00013242     0.00014582     
  0.075           -7.7938e-005    9.2736e-005    
  0.1             -4.4362e-005    5.9572e-005    
  0.125           -2.3432e-005    3.8854e-005    
  0.15            -1.0208e-005    2.5734e-005    
  0.175           -1.85e-006      1.7424e-005    
  0.2             3.4606e-006     1.2134e-005    
  0.225           6.871e-006      8.734e-006     
  0.25            9.0864e-006     6.514e-006     
  0.275           1.0694e-005     5.0758e-006    
  0.3             1.1498e-005     4.1168e-006    
  0.325           1.2198e-005     3.48e-006      
  0.35            1.256e-005      3.0486e-006    
  0.375           1.2904e-005     2.7508e-006    
  0.4             1.3076e-005     2.5446e-006    
  0.425           1.3226e-005     2.4028e-006    
  0.45            1.3226e-005     2.3036e-006    
  0.475           1.3352e-005     2.2304e-006    
  0.5             1.3442e-005     2.1742e-006    
  0.525           1.3442e-005     2.1364e-006    
  0.55            1.349e-005      2.108e-006     
  0.575           1.3454e-005     2.0872e-006    
  0.6             1.3424e-005     2.0666e-006    
  0.625           1.3388e-005     2.0502e-006    
  0.65            1.3458e-005     2.0386e-006    
  0.675           1.3414e-005     2.026e-006     
  0.7             1.3402e-005     2.014e-006     
  0.725           1.3394e-005     2.003e-006     
  0.75            1.341e-005      1.996e-006     
  0.775           1.34e-005       1.9846e-006    
  0.8             1.3396e-005     1.9768e-006    
  0.825           1.3402e-005     1.971e-006     
  0.85            1.3474e-005     1.9614e-006    
  0.875           1.3478e-005     1.9566e-006    
  0.9             1.341e-005      1.9472e-006    
  0.925           1.3464e-005     1.9366e-006    
  0.95            1.349e-005      1.9268e-006    
  0.975           1.3488e-005     1.9176e-006    
  1               1.3494e-005     1.9038e-006    
  1.025           1.353e-005      1.8918e-006    
  1.05            1.3508e-005     1.8814e-006    
  1.075           1.3534e-005     1.8688e-006    
  1.1             1.3592e-005     1.8536e-006    
  1.125           1.3606e-005     1.8418e-006    
  1.15            1.3608e-005     1.827e-006     
  1.175           1.3574e-005     1.8132e-006    
  1.2             1.3622e-005     1.7974e-006    
  1.225           1.3616e-005     1.781e-006     
  1.25            1.365e-005      1.7628e-006    
  1.275           1.372e-005      1.7466e-006    
  1.3             1.3648e-005     1.728e-006     
  1.325           1.3734e-005     1.7088e-006    
  1.35            1.3748e-005     1.692e-006     
  1.375           1.3792e-005     1.6738e-006    
  1.4             1.3818e-005     1.6522e-006    
  1.425           1.3822e-005     1.6346e-006    
  1.45            1.3892e-005     1.616e-006     
  1.475           1.3812e-005     1.599e-006     
  1.5             1.383e-005      1.5784e-006    
  1.525           1.3872e-005     1.5598e-006    
  1.55            1.3904e-005     1.5404e-006    
  1.575           1.3922e-005     1.5224e-006    
  1.6             1.393e-005      1.5042e-006    
  1.625           1.3936e-005     1.485e-006     
  1.65            1.4014e-005     1.466e-006     
  1.675           1.4026e-005     1.4506e-006    
  1.7             1.3994e-005     1.4302e-006    
  1.725           1.405e-005      1.4088e-006    
  1.75            1.399e-005      1.3892e-006    
  1.775           1.4048e-005     1.371e-006     
  1.8             1.4122e-005     1.3502e-006    
END_DB

BEGIN_DB
 ICCAP_VAR vb         0.62           
 ICCAP_VAR ve         0              
 ICCAP_VAR vs         0              

 #vc              ic              ib             
  0               -0.00052948     0.00053574     
  0.025           -0.00031556     0.00033652     
  0.05            -0.0001846      0.0002122      
  0.075           -0.0001044      0.0001345      
  0.1             -5.4804e-005    8.6276e-005    
  0.125           -2.4208e-005    5.6114e-005    
  0.15            -5.0582e-006    3.7144e-005    
  0.175           6.9908e-006     2.5216e-005    
  0.2             1.466e-005      1.7574e-005    
  0.225           1.9566e-005     1.2706e-005    
  0.25            2.2638e-005     9.5908e-006    
  0.275           2.4752e-005     7.556e-006     
  0.3             2.6006e-005     6.2272e-006    
  0.325           2.6876e-005     5.3418e-006    
  0.35            2.7528e-005     4.7504e-006    
  0.375           2.8012e-005     4.352e-006     
  0.4             2.8208e-005     4.0756e-006    
  0.425           2.8378e-005     3.8862e-006    
  0.45            2.8464e-005     3.7524e-006    
  0.475           2.855e-005      3.658e-006     
  0.5             2.8578e-005     3.588e-006     
  0.525           2.8586e-005     3.5372e-006    
  0.55            2.8572e-005     3.5052e-006    
  0.575           2.8644e-005     3.482e-006     
  0.6             2.8592e-005     3.4622e-006    
  0.625           2.8564e-005     3.4418e-006    
  0.65            2.86e-005       3.4274e-006    
  0.675           2.8556e-005     3.4172e-006    
  0.7             2.859e-005      3.407e-006     
  0.725           2.8448e-005     3.3968e-006    
  0.75            2.8466e-005     3.39e-006      
  0.775           2.8478e-005     3.3814e-006    
  0.8             2.8508e-005     3.3782e-006    
  0.825           2.8452e-005     3.3716e-006    
  0.85            2.8536e-005     3.3616e-006    
  0.875           2.8428e-005     3.3528e-006    
  0.9             2.8468e-005     3.3452e-006    
  0.925           2.846e-005      3.3362e-006    
  0.95            2.8452e-005     3.3274e-006    
  0.975           2.8522e-005     3.3136e-006    
  1               2.8606e-005     3.3088e-006    
  1.025           2.8524e-005     3.296e-006     
  1.05            2.8596e-005     3.2828e-006    
  1.075           2.8528e-005     3.2696e-006    
  1.1             2.857e-005      3.2568e-006    
  1.125           2.8594e-005     3.2474e-006    
  1.15            2.8676e-005     3.2342e-006    
  1.175           2.8668e-005     3.2252e-006    
  1.2             2.8664e-005     3.211e-006     
  1.225           2.8674e-005     3.1958e-006    
  1.25            2.8714e-005     3.1792e-006    
  1.275           2.8766e-005     3.1654e-006    
  1.3             2.8842e-005     3.145e-006     
  1.325           2.8794e-005     3.1304e-006    
  1.35            2.8846e-005     3.1092e-006    
  1.375           2.8898e-005     3.0906e-006    
  1.4             2.8862e-005     3.0708e-006    
  1.425           2.8916e-005     3.0512e-006    
  1.45            2.8848e-005     3.0338e-006    
  1.475           2.8904e-005     3.0122e-006    
  1.5             2.8942e-005     2.993e-006     
  1.525           2.8998e-005     2.9734e-006    
  1.55            2.9002e-005     2.9516e-006    
  1.575           2.9068e-005     2.9304e-006    
  1.6             2.903e-005      2.9098e-006    
  1.625           2.906e-005      2.8916e-006    
  1.65            2.9046e-005     2.8698e-006    
  1.675           2.914e-005      2.8512e-006    
  1.7             2.9166e-005     2.8328e-006    
  1.725           2.9072e-005     2.8132e-006    
  1.75            2.9122e-005     2.793e-006     
  1.775           2.9198e-005     2.7714e-006    
  1.8             2.9194e-005     2.7474e-006    
END_DB

BEGIN_DB
 ICCAP_VAR vb         0.64           
 ICCAP_VAR ve         0              
 ICCAP_VAR vs         0              

 #vc              ic              ib             
  0               -0.0007618      0.00077644     
  0.025           -0.00044906     0.00049136     
  0.05            -0.00025454     0.00031004     
  0.075           -0.00013492     0.00019604     
  0.1             -6.1634e-005    0.00012536     
  0.125           -1.6602e-005    8.147e-005     
  0.15            1.1344e-005     5.3904e-005    
  0.175           2.8858e-005     3.6658e-005    
  0.2             4.0012e-005     2.5682e-005    
  0.225           4.7054e-005     1.8742e-005    
  0.25            5.1478e-005     1.4284e-005    
  0.275           5.4432e-005     1.141e-005     
  0.3             5.6282e-005     9.5632e-006    
  0.325           5.7522e-005     8.328e-006     
  0.35            5.8302e-005     7.5114e-006    
  0.375           5.898e-005      6.9614e-006    
  0.4             5.9316e-005     6.589e-006     
  0.425           5.9532e-005     6.3298e-006    
  0.45            5.968e-005      6.155e-006     
  0.475           5.9772e-005     6.0354e-006    
  0.5             5.9846e-005     5.95e-006      
  0.525           5.9822e-005     5.8948e-006    
  0.55            5.9828e-005     5.8418e-006    
  0.575           5.9752e-005     5.8054e-006    
  0.6             5.9762e-005     5.7856e-006    
  0.625           5.9638e-005     5.7672e-006    
  0.65            5.9594e-005     5.7558e-006    
  0.675           5.9552e-005     5.7494e-006    
  0.7             5.95e-005       5.7412e-006    
  0.725           5.9424e-005     5.7344e-006    
  0.75            5.9422e-005     5.7348e-006    
  0.775           5.9416e-005     5.7262e-006    
  0.8             5.9386e-005     5.7124e-006    
  0.825           5.939e-005      5.6996e-006    
  0.85            5.9308e-005     5.7034e-006    
  0.875           5.935e-005      5.6902e-006    
  0.9             5.9384e-005     5.6832e-006    
  0.925           5.9386e-005     5.6806e-006    
  0.95            5.9348e-005     5.6646e-006    
  0.975           5.9432e-005     5.6564e-006    
  1               5.9442e-005     5.6464e-006    
  1.025           5.9466e-005     5.6354e-006    
  1.05            5.955e-005      5.6226e-006    
  1.075           5.9458e-005     5.614e-006     
  1.1             5.9582e-005     5.6036e-006    
  1.125           5.9562e-005     5.5854e-006    
  1.15            5.9612e-005     5.5756e-006    
  1.175           5.9562e-005     5.559e-006     
  1.2             5.9642e-005     5.5436e-006    
  1.225           5.9774e-005     5.5358e-006    
  1.25            5.973e-005      5.5228e-006    
  1.275           5.9742e-005     5.5038e-006    
  1.3             5.9768e-005     5.4888e-006    
  1.325           5.9918e-005     5.4708e-006    
  1.35            5.9854e-005     5.4486e-006    
  1.375           5.9872e-005     5.4306e-006    
  1.4             5.992e-005      5.4142e-006    
  1.425           6.0002e-005     5.4016e-006    
  1.45            6.0004e-005     5.3788e-006    
  1.475           6.0004e-005     5.3586e-006    
  1.5             6.006e-005      5.3342e-006    
  1.525           6.0008e-005     5.3154e-006    
  1.55            6.0184e-005     5.2948e-006    
  1.575           6.0112e-005     5.2736e-006    
  1.6             6.0134e-005     5.26e-006      
  1.625           6.0206e-005     5.2344e-006    
  1.65            6.0154e-005     5.2108e-006    
  1.675           6.0272e-005     5.1934e-006    
  1.7             6.0264e-005     5.1742e-006    
  1.725           6.0278e-005     5.15e-006      
  1.75            6.0254e-005     5.1276e-006    
  1.775           6.027e-005      5.1026e-006    
  1.8             6.0274e-005     5.0844e-006    
END_DB

BEGIN_DB
 ICCAP_VAR vb         0.66           
 ICCAP_VAR ve         0              
 ICCAP_VAR vs         0              

 #vc              ic              ib             
  0               -0.001079       0.0011148      
  0.025           -0.00063346     0.0007175      
  0.05            -0.00034616     0.00045548     
  0.075           -0.00016664     0.00028816     
  0.1             -5.6858e-005    0.00018404     
  0.125           1.0384e-005     0.0001195      
  0.15            5.1786e-005     7.9212e-005    
  0.175           7.7606e-005     5.411e-005     
  0.2             9.3936e-005     3.8126e-005    
  0.225           0.00010416      2.8096e-005    
  0.25            0.00011076      2.1652e-005    
  0.275           0.000115        1.7528e-005    
  0.3             0.0001178       1.487e-005     
  0.325           0.00011934      1.3128e-005    
  0.35            0.0001207       1.1982e-005    
  0.375           0.00012148      1.1222e-005    
  0.4             0.000122        1.0714e-005    
  0.425           0.00012208      1.0358e-005    
  0.45            0.00012226      1.0124e-005    
  0.475           0.0001225       9.9738e-006    
  0.5             0.00012252      9.8586e-006    
  0.525           0.00012266      9.7784e-006    
  0.55            0.00012256      9.7232e-006    
  0.575           0.00012268      9.6902e-006    
  0.6             0.00012258      9.666e-006     
  0.625           0.00012244      9.6524e-006    
  0.65            0.00012252      9.6366e-006    
  0.675           0.00012226      9.6336e-006    
  0.7             0.00012214      9.6364e-006    
  0.725           0.00012204      9.6336e-006    
  0.75            0.00012182      9.6302e-006    
  0.775           0.00012192      9.6242e-006    
  0.8             0.00012174      9.621e-006     
  0.825           0.0001218       9.6158e-006    
  0.85            0.00012174      9.6094e-006    
  0.875           0.00012174      9.6026e-006    
  0.9             0.0001217       9.5954e-006    
  0.925           0.00012174      9.5898e-006    
  0.95            0.00012184      9.5734e-006    
  0.975           0.00012184      9.57e-006      
  1               0.0001219       9.559e-006     
  1.025           0.00012188      9.5456e-006    
  1.05            0.00012198      9.5294e-006    
  1.075           0.00012204      9.5284e-006    
  1.1             0.0001221       9.513e-006     
  1.125           0.00012228      9.5102e-006    
  1.15            0.00012224      9.4954e-006    
  1.175           0.0001223       9.48e-006      
  1.2             0.00012218      9.4686e-006    
  1.225           0.00012248      9.4532e-006    
  1.25            0.00012252      9.4388e-006    
  1.275           0.00012246      9.421e-006     
  1.3             0.00012252      9.4162e-006    
  1.325           0.0001226       9.4054e-006    
  1.35            0.00012278      9.378e-006     
  1.375           0.00012286      9.3602e-006    
  1.4             0.0001228       9.3404e-006    
  1.425           0.0001229       9.32e-006      
  1.45            0.00012304      9.3048e-006    
  1.475           0.000123        9.2938e-006    
  1.5             0.00012296      9.2712e-006    
  1.525           0.00012296      9.2466e-006    
  1.55            0.00012324      9.2258e-006    
  1.575           0.00012314      9.2066e-006    
  1.6             0.00012316      9.1896e-006    
  1.625           0.00012334      9.1698e-006    
  1.65            0.0001232       9.1462e-006    
  1.675           0.00012338      9.1368e-006    
  1.7             0.0001234       9.1106e-006    
  1.725           0.00012332      9.0882e-006    
  1.75            0.00012352      9.0626e-006    
  1.775           0.00012346      9.042e-006     
  1.8             0.00012346      9.0238e-006    
END_DB

BEGIN_DB
 ICCAP_VAR vb         0.68           
 ICCAP_VAR ve         0              
 ICCAP_VAR vs         0              

 #vc              ic              ib             
  0               -0.0014906      0.0015748      
  0.025           -0.00087926     0.0010442      
  0.05            -0.00046108     0.00067284     
  0.075           -0.0001908      0.00042778     
  0.1             -2.3508e-005    0.00027328     
  0.125           7.8844e-005     0.00017728     
  0.15            0.0001418       0.0001176      
  0.175           0.00018056      8.0608e-005    
  0.2             0.00020484      5.7262e-005    
  0.225           0.00022022      4.2564e-005    
  0.25            0.00022996      3.3228e-005    
  0.275           0.00023638      2.7258e-005    
  0.3             0.0002403       2.3444e-005    
  0.325           0.00024286      2.0974e-005    
  0.35            0.00024468      1.9374e-005    
  0.375           0.00024592      1.8294e-005    
  0.4             0.00024684      1.7582e-005    
  0.425           0.00024734      1.7102e-005    
  0.45            0.00024754      1.6798e-005    
  0.475           0.00024792      1.6574e-005    
  0.5             0.00024794      1.643e-005     
  0.525           0.00024802      1.6324e-005    
  0.55            0.00024782      1.627e-005     
  0.575           0.0002478       1.6228e-005    
  0.6             0.00024776      1.6202e-005    
  0.625           0.00024762      1.6188e-005    
  0.65            0.00024758      1.6194e-005    
  0.675           0.00024738      1.62e-005      
  0.7             0.00024706      1.6196e-005    
  0.725           0.0002469       1.6204e-005    
  0.75            0.00024692      1.6214e-005    
  0.775           0.00024688      1.622e-005     
  0.8             0.00024672      1.6214e-005    
  0.825           0.00024658      1.6214e-005    
  0.85            0.00024676      1.6226e-005    
  0.875           0.00024682      1.6222e-005    
  0.9             0.00024664      1.621e-005     
  0.925           0.0002468       1.6204e-005    
  0.95            0.00024696      1.621e-005     
  0.975           0.00024712      1.62e-005      
  1               0.0002472       1.6184e-005    
  1.025           0.00024726      1.618e-005     
  1.05            0.00024742      1.6164e-005    
  1.075           0.00024758      1.6156e-005    
  1.1             0.0002479       1.6138e-005    
  1.125           0.000248        1.6126e-005    
  1.15            0.00024796      1.6106e-005    
  1.175           0.00024804      1.6104e-005    
  1.2             0.00024838      1.6088e-005    
  1.225           0.00024842      1.609e-005     
  1.25            0.00024856      1.6072e-005    
  1.275           0.00024872      1.6058e-005    
  1.3             0.00024884      1.605e-005     
  1.325           0.00024906      1.6022e-005    
  1.35            0.00024924      1.6022e-005    
  1.375           0.00024916      1.6e-005       
  1.4             0.00024934      1.599e-005     
  1.425           0.00024954      1.5966e-005    
  1.45            0.00024966      1.5956e-005    
  1.475           0.00024984      1.5948e-005    
  1.5             0.00025008      1.5934e-005    
  1.525           0.00025014      1.5898e-005    
  1.55            0.00025036      1.5882e-005    
  1.575           0.0002503       1.5862e-005    
  1.6             0.00025038      1.5836e-005    
