! VERSION = 6.00
!Measured by: Marcus Mueller on Fri Nov 16 09:39:16 WEST 2018
!TECHNOLOGY: Teledyne
!WAFER: w096
!DIE Nr.: y
!TRANSISTOR Name: 0p25x10x1_full
!Emitter size: 0.25x10
!Configuration: CBE
!Temperature: 298
BEGIN_HEADER
 ICCAP_INPUTS
  vs         V  S GROUND GND 0 CON        0
  ve         V  E GROUND GND 0 CON        0
  vc         V  C GROUND SMU_C 0.0375 SYNC       1 0.1 vb
  vb         V  B GROUND SMU_B 0.003 LIN        2    0.6        0.83       24   0.01      
  freq       F  LIN        1    1e+009     5e+010     50   1e+009    
 ICCAP_OUTPUTS
  ib         I  B GROUND SMU_B B
  ic         I  C GROUND SMU_C B
  S          S  B C GROUND NWA B
  S_deemb    S P1 P2 GROUND n/a B
  Y          Y P1 P2 GROUND n/a B
 ICCAP_VALUES
  MEAS_BY "Marcus Mueller"
  TECH "Teledyne"
  WAFER "w096"
  DIE "y"
  TRAN "0p25x10x1_full"
  WIDTH "0.25"
  LENGTH "10"
  CONFIG "CBE"
  TEMP "298"
END_HEADER

BEGIN_DB
 ICCAP_VAR vs         0              
 ICCAP_VAR ve         0              
 ICCAP_VAR vc         0.7            
 ICCAP_VAR vb         0.6            

 #freq            ib              ic              R:S(1,1)        I:S(1,1)        R:S(1,2)        I:S(1,2)        R:S(2,1)        I:S(2,1)        R:S(2,2)        I:S(2,2)        R:S_deemb(1,1)  I:S_deemb(1,1)  R:S_deemb(1,2)  I:S_deemb(1,2)  R:S_deemb(2,1)  I:S_deemb(2,1)  R:S_deemb(2,2)  I:S_deemb(2,2)  R:Y(1,1)        I:Y(1,1)        R:Y(1,2)        I:Y(1,2)        R:Y(2,1)        I:Y(2,1)        R:Y(2,2)        I:Y(2,2)       
  1e+009          1.9852e-006     1.3418e-005     0.992772        -0.0396717      0.00201747      0.0104032       -0.052732       0.01916         0.891994        -0.332381       0.993088        -0.0193744      0.00132743      0.00690381      -0.0513237      0.0143547       0.865789        -0.27924        6.68815e-005    0.000193159     -2.37553e-006   -7.47446e-005   0.000563178     -6.47869e-005   0.000968642     0.0031362      
  2e+009          1.9852e-006     1.3418e-005     0.990161        -0.0793412      0.00326759      0.0210216       -0.0479172      0.0276893       1.01907         -0.218395       0.99226         -0.0378107      0.00177538      0.0143864       -0.046874       0.0190729       0.995734        -0.198369       6.91265e-005    0.000377482     -7.12126e-007   -0.000145076    0.000488331     -0.000134393    -0.00015438     0.00196918     
  3e+009          1.9852e-006     1.3418e-005     0.986441        -0.117963       0.00339136      0.0318338       -0.0487066      0.0384816       0.994279        -0.102676       0.990161        -0.0562629      0.000851116     0.0219021       -0.0490245      0.0252532       1.00508         -0.0361827      8.02333e-005    0.000562251     1.57992e-006    -0.000219553    0.000502198     -0.000230093    -5.98075e-005   0.000354443    
  4e+009          1.9852e-006     1.3418e-005     0.979576        -0.157481       0.00883894      0.041816        -0.0437547      0.0535459       0.967836        -0.230415       0.989001        -0.0741127      0.00296241      0.0292747       -0.0477838      0.0351327       0.974596        -0.0978056      7.76067e-005    0.00074101      -4.32608e-006   -0.00029899     0.000514592     -0.000313808    0.000202678     0.00099352     
  5e+009          1.9852e-006     1.3418e-005     0.972257        -0.19736        0.0116739       0.0515446       -0.0382435      0.0623817       0.980886        -0.229771       0.986827        -0.0933385      0.00407686      0.0362047       -0.0445316      0.0418145       0.985734        -0.123731       8.08947e-005    0.000935149     -1.23993e-006   -0.00036812     0.000493147     -0.000371153    5.8542e-005     0.00124162     
  6e+009          1.9852e-006     1.3418e-005     0.964152        -0.233529       0.0144764       0.0622511       -0.036185       0.075501        0.976121        -0.21019        0.983768        -0.112343       0.00388334      0.0436915       -0.045468       0.0502715       0.99812         -0.0702489      8.86351e-005    0.0011275       1.13112e-006    -0.000441416    0.000501739     -0.000462121    -1.66107e-005   0.000692493    
  7e+009          1.9852e-006     1.3418e-005     0.951762        -0.272766       0.0234955       0.0704363       -0.0267391      0.087977        0.945564        -0.318172       0.980941        -0.129728       0.0068189       0.0510646       -0.0431559      0.0592878       0.979424        -0.104357       9.11574e-005    0.00130457      -7.97237e-006   -0.00052322     0.000505927     -0.000546656    0.000136673     0.00105045     
  8e+009          1.9852e-006     1.3418e-005     0.940038        -0.30856        0.0271619       0.0792398       -0.021212       0.0954579       0.954706        -0.310489       0.976776        -0.148437       0.00818653      0.057912        -0.0399777      0.0658667       0.981468        -0.133311       0.000102752     0.00149749      6.53591e-007    -0.000593682    0.000496049     -0.000604656    7.72603e-005    0.00133877     
  9e+009          1.9852e-006     1.3418e-005     0.925269        -0.348859       0.0325308       0.0891488       -0.0153468      0.108471        0.948009        -0.312861       0.972666        -0.165461       0.00908873      0.0656574       -0.0393626      0.0748295       0.992715        -0.104469       0.000111303     0.00167355      -1.44239e-006   -0.00067035     0.000496603     -0.000696117    -6.34542e-006   0.00103499     
  1e+010          1.9852e-006     1.3418e-005     0.911193        -0.379754       0.0426679       0.0947955       -0.00517222     0.117718        0.912143        -0.391219       0.968239        -0.186045       0.0127562       0.0727504       -0.0370325      0.0835482       0.976969        -0.126517       0.000112139     0.00188742      -1.21246e-005   -0.00075306     0.000506559     -0.000782181    0.000119409     0.00127396     
  1.1e+010        1.9852e-006     1.3418e-005     0.888789        -0.418903       0.0479715       0.102807        0.00156777      0.12372         0.917595        -0.391643       0.964097        -0.200554       0.0151242       0.080125        -0.0324565      0.0897643       0.978768        -0.152182       0.000119099     0.00204097      -7.23436e-006   -0.000830826    0.000487322     -0.000841722    5.91674e-005    0.0015294      
  1.2e+010        1.9852e-006     1.3418e-005     0.872355        -0.452828       0.0537334       0.110201        0.0090649       0.135636        0.903809        -0.415231       0.958361        -0.220427       0.0168244       0.0873731       -0.0311319      0.0999484       0.985957        -0.135742       0.000125492     0.00225136      -9.5793e-006    -0.000905158    0.000493306     -0.000943857    3.20258e-006    0.00135353     
  1.3e+010        1.9852e-006     1.3418e-005     0.850247        -0.474172       0.0651861       0.122038        0.0214159       0.15114         0.857524        -0.482356       0.952836        -0.237431       0.022005        0.0953452       -0.0268582      0.110041        0.972295        -0.150111       0.000130006     0.00243539      -3.05499e-005   -0.00100263     0.000490122     -0.00105265     0.000109008     0.00151854     
  1.4e+010        1.9852e-006     1.3418e-005     0.825815        -0.511961       0.0772496       0.127266        0.0335286       0.152777        0.866788        -0.475732       0.95423         -0.251851       0.028834        0.103576        -0.0200378      0.115853        0.975353        -0.176884       7.05197e-005    0.00257889      -5.9659e-005    -0.00109537     0.000454263     -0.00111028     2.48169e-005    0.00178552     
  1.5e+010        1.9852e-006     1.3418e-005     0.796938        -0.555422       0.0878623       0.130897        0.0492763       0.160831        0.845993        -0.506101       0.946722        -0.269278       0.034544        0.105282        -0.0108944      0.120979        0.987177        -0.167598       9.25448e-005    0.00277967      -0.000107388    -0.0011219      0.00037857      -0.00117606     -8.15501e-005   0.0016803      
  1.6e+010        1.9852e-006     1.3418e-005     0.789445        -0.564783       0.101158        0.131299        0.0625469       0.164681        0.798537        -0.57676        0.936043        -0.299106       0.0366529       0.105512        -0.0122952      0.122761        0.967315        -0.185458       0.000107624     0.00310557      -0.000100058    -0.00114572     0.00043207      -0.00119459     8.17874e-005    0.00189219     
  1.7e+010        1.9852e-006     1.3418e-005     0.75641         -0.601318       0.109732        0.137333        0.0692819       0.168385        0.806158        -0.559859       0.927934        -0.31265        0.0372439       0.110985        -0.00953825     0.126001        0.964811        -0.218473       0.000139105     0.00326409      -6.32185e-005   -0.00120648     0.00044345      -0.00122635     3.30307e-005    0.00222573     
  1.8e+010        1.9852e-006     1.3418e-005     0.729972        -0.631898       0.123186        0.140184        0.0862408       0.175128        0.769205        -0.599492       0.916614        -0.324634       0.0378063       0.11926         -0.00818491     0.136989        0.968373        -0.200828       0.000198285     0.00341912      -4.87205e-005   -0.00129442     0.000459132     -0.00134464     2.28406e-005    0.00204089     
  1.9e+010        1.9852e-006     1.3418e-005     0.702761        -0.661497       0.136597        0.135282        0.101832        0.173145        0.731685        -0.644563       0.906271        -0.340718       0.0430366       0.125446        -0.00373672     0.14684         0.948405        -0.220575       0.000229725     0.00361741      -5.67094e-005   -0.0013888      0.000477117     -0.00146365     0.000166209     0.00228458     
  2e+010          1.9852e-006     1.3418e-005     0.665642        -0.681241       0.144789        0.138013        0.110702        0.174902        0.727045        -0.64217        0.903405        -0.353705       0.0473538       0.13132         0.00251736      0.150117        0.94943         -0.244762       0.000201236     0.00376016      -5.4233e-005    -0.00145897     0.000452263     -0.00150368     8.90844e-005    0.00252836     
  2.1e+010        1.9852e-006     1.3418e-005     0.637966        -0.710482       0.156066        0.136489        0.126984        0.175794        0.695525        -0.667897       0.886798        -0.365977       0.0498657       0.137671        0.00740456      0.15968         0.952206        -0.232242       0.000303868     0.00394915      -5.69847e-005   -0.0015395      0.000439143     -0.00162348     7.85244e-005    0.00239912     
  2.2e+010        1.9852e-006     1.3418e-005     0.612369        -0.726209       0.169659        0.129653        0.138235        0.17177         0.645606        -0.71378        0.876857        -0.388635       0.0567248       0.141961        0.0100421       0.164298        0.934389        -0.241938       0.000296976     0.00421875      -8.25255e-005   -0.00162359     0.000464046     -0.00168779     0.000222618     0.00254473     
  2.3e+010        1.9852e-006     1.3418e-005     0.575797        -0.741752       0.175311        0.130368        0.146178        0.170296        0.645195        -0.706898       0.868271        -0.400894       0.0612744       0.147316        0.015571        0.168315        0.93307         -0.26889        0.00031785      0.00438063      -7.40659e-005   -0.00169755     0.000459858     -0.00174042     0.000152536     0.00282334     
  2.4e+010        1.9852e-006     1.3418e-005     0.547647        -0.760897       0.184339        0.136689        0.160502        0.176653        0.632763        -0.721465       0.855775        -0.416333       0.0614924       0.153651        0.0196792       0.177751        0.941274        -0.270089       0.00035646      0.00458904      -3.64996e-005   -0.00176165     0.000470523     -0.00184498     5.29776e-005    0.00281116     
  2.5e+010        1.9852e-006     1.3418e-005     0.522511        -0.775774       0.195715        0.122601        0.172915        0.168155        0.562596        -0.770727       0.843648        -0.440706       0.0691214       0.157166        0.0245127       0.182752        0.921611        -0.268757       0.000343651     0.00489475      -7.26813e-005   -0.00185011     0.000476014     -0.00193062     0.000240649     0.00286137     
  2.6e+010        1.9852e-006     1.3418e-005     0.471101        -0.775828       0.208414        0.134337        0.178397        0.175099        0.570186        -0.749711       0.835424        -0.438782       0.0764968       0.16391         0.0316127       0.183084        0.914945        -0.302356       0.000422214     0.00492442      -8.51197e-005   -0.0019582      0.000443738     -0.00196376     0.000192715     0.00322875     
  2.7e+010        1.9852e-006     1.3418e-005     0.473188        -0.80166        0.222191        0.133335        0.205066        0.174855        0.543886        -0.776085       0.819645        -0.468665       0.0753488       0.168311        0.0372274       0.195443        0.925028        -0.297406       0.000403754     0.00529889      -2.70384e-005   -0.00199555     0.000468104     -0.0021017      9.09141e-005    0.00314527     
  2.8e+010        1.9852e-006     1.3418e-005     0.419806        -0.815697       0.231639        0.108775        0.214752        0.155047        0.494793        -0.805674       0.809539        -0.471277       0.0839034       0.173063        0.0418595       0.200722        0.901843        -0.303573       0.000469186     0.00538824      -7.55381e-005   -0.00211241     0.000469944     -0.00220392     0.000285405     0.00329243     
  2.9e+010        1.9852e-006     1.3418e-005     0.397302        -0.819659       0.237542        0.109945        0.220482        0.155977        0.478971        -0.801188       0.806398        -0.494472       0.0904081       0.176219        0.0488578       0.20467         0.90106         -0.323971       0.000356226     0.00563942      -7.58585e-005   -0.00216804     0.000468555     -0.00225665     0.000211571     0.00350826     
  3e+010          1.9852e-006     1.3418e-005     0.348541        -0.835439       0.246251        0.104479        0.230445        0.145929        0.457916        -0.814769       0.789163        -0.492268       0.0962841       0.184459        0.0561882       0.212089        0.90663         -0.322436       0.000512661     0.00572695      -9.45981e-005   -0.00228973     0.000434536     -0.00237706     0.000138379     0.00348366     
  3.1e+010        1.9852e-006     1.3418e-005     0.34276         -0.839922       0.255676        0.0970212       0.24473         0.143229        0.415028        -0.84049        0.77246         -0.530919       0.111737        0.178155        0.0714458       0.209684        0.901706        -0.339113       0.000433109     0.00623791      -0.000203041    -0.00231693     0.000352475     -0.00242448     0.000126408     0.00369838     
  3.2e+010        1.9852e-006     1.3418e-005     0.302946        -0.842346       0.251434        0.0872629       0.246164        0.131649        0.360609        -0.839286       0.747747        -0.53004        0.0993081       0.177632        0.0638482       0.211873        0.878039        -0.346733       0.000679698     0.00636375      -6.61084e-005   -0.00230467     0.000469546     -0.00246266     0.000332162     0.00383963     
  3.3e+010        1.9852e-006     1.3418e-005     0.259389        -0.85839        0.272326        0.0892303       0.261917        0.136           0.367939        -0.843385       0.744223        -0.53734        0.105445        0.190228        0.068027        0.220885        0.884209        -0.35806        0.000634573     0.00645715      -3.69627e-005   -0.00245163     0.000497985     -0.00255747     0.000196035     0.00393074     
  3.4e+010        1.9852e-006     1.3418e-005     0.228864        -0.856758       0.268615        0.0719064       0.265509        0.111613        0.303777        -0.863102       0.71659         -0.540878       0.109006        0.192093        0.0750112       0.22543         0.864394        -0.356495       0.000861186     0.00669015      -4.30411e-005   -0.00254877     0.000485633     -0.0026987      0.000382418     0.00400511     
  3.5e+010        1.9852e-006     1.3418e-005     0.198397        -0.855072       0.273162        0.0694018       0.263853        0.118481        0.284906        -0.85972        0.716205        -0.568345       0.117361        0.193445        0.0751091       0.225545        0.85056         -0.374297       0.000660287     0.00696336      -5.40022e-005   -0.00261222     0.000553954     -0.00268864     0.000439933     0.00424682     
  3.6e+010        1.9852e-006     1.3418e-005     0.168437        -0.847152       0.277249        0.0801889       0.277223        0.113902        0.247427        -0.864447       0.683664        -0.581677       0.111749        0.200854        0.0851403       0.232401        0.861552        -0.384786       0.00085311      0.00732692      9.08396e-005    -0.00267102     0.000545065     -0.00282579     0.000261259     0.00429886     
  3.7e+010        1.9852e-006     1.3418e-005     0.114472        -0.834071       0.290387        0.0668938       0.287022        0.116574        0.190567        -0.853242       0.693086        -0.582298       0.12589         0.208005        0.0851234       0.241878        0.827947        -0.373367       0.000716779     0.00727105      -1.49561e-005   -0.0028612      0.000601382     -0.00295706     0.000616815     0.00434631     
  3.8e+010        1.9852e-006     1.3418e-005     0.121957        -0.812728       0.3006          0.0847844       0.293873        0.127252        0.206599        -0.823307       0.655977        -0.583563       0.123806        0.207366        0.0876754       0.238475        0.815856        -0.411008       0.00106649      0.00756529      8.4548e-005     -0.0029024      0.000651882     -0.00298438     0.000560375     0.00478275     
  3.9e+010        1.9852e-006     1.3418e-005     0.115371        -0.82873        0.350165        0.0724023       0.345509        0.117308        0.197987        -0.826573       0.643282        -0.596121       0.126174        0.219513        0.0918812       0.252698        0.814061        -0.389658       0.00104035      0.00778285      0.000135267     -0.00305828     0.00070038      -0.00317467     0.000635776     0.0045686      
  4e+010          1.9852e-006     1.3418e-005     0.103502        -0.844594       0.356325        0.0367211       0.359051        0.0871789       0.186486        -0.852984       0.613509        -0.604103       0.120383        0.225938        0.0848795       0.259581        0.77756         -0.39369        0.00124087      0.008073        0.000292323     -0.00318183     0.000893206     -0.00328951     0.000971266     0.00475391     
  4.1e+010        1.9852e-006     1.3418e-005     0.0294904       -0.845423       0.348967        0.0022256       0.353154        0.0498036       0.143575        -0.863592       0.600522        -0.569805       0.121069        0.259817        0.0808082       0.295203        0.752741        -0.367031       0.00153254      0.0077709       0.000426656     -0.00363929     0.00110218      -0.00375405     0.00123743      0.00454313     
  4.2e+010        1.9852e-006     1.3418e-005     0.0340608       -0.849132       0.354722        0.00458137      0.360541        0.0401519       0.11821         -0.865816       0.604779        -0.562557       0.14964         0.295474        0.119766        0.325093        0.787681        -0.328165       0.00135527      0.00774366      0.000250813     -0.00413182     0.000760015     -0.00426277     0.000861731     0.00406079     
