! VERSION = 6.00
!Measured by: Marcus Mueller on Fri Nov 16 09:41:58 WEST 2018
!TECHNOLOGY: Teledyne
!WAFER: w096
!DIE Nr.: y
!TRANSISTOR Name: 0p25x10x1_full
!Emitter size: 0.25x10
!Configuration: CBE
!Temperature: 298
BEGIN_HEADER
 ICCAP_INPUTS
  vs         V  S GROUND GND 0 CON        0
  ve         V  E GROUND GND 0 CON        0
  vc         V  C GROUND SMU_C 0.0375 CON        0
  vb         V  B GROUND SMU_B 0.003 LIN        2    0.6        0.8        21   0.01      
  freq       F  LIN        1    1e+009     5e+010     50   1e+009    
 ICCAP_OUTPUTS
  ib         I  B GROUND SMU_B B
  ic         I  C GROUND SMU_C B
  S          S  B C GROUND NWA B
  S_deemb    S P1 P2 GROUND n/a B
  Y          Y P1 P2 GROUND n/a B
 ICCAP_VALUES
  MEAS_BY "Marcus Mueller"
  TECH "Teledyne"
  WAFER "w096"
  DIE "y"
  TRAN "0p25x10x1_full"
  WIDTH "0.25"
  LENGTH "10"
  CONFIG "CBE"
  TEMP "298"
END_HEADER

BEGIN_DB
 ICCAP_VAR vs         0              
 ICCAP_VAR ve         0              
 ICCAP_VAR vc         0              
 ICCAP_VAR vb         0.6            

 #freq            ib              ic              R:S(1,1)        I:S(1,1)        R:S(1,2)        I:S(1,2)        R:S(2,1)        I:S(2,1)        R:S(2,2)        I:S(2,2)        R:S_deemb(1,1)  I:S_deemb(1,1)  R:S_deemb(1,2)  I:S_deemb(1,2)  R:S_deemb(2,1)  I:S_deemb(2,1)  R:S_deemb(2,2)  I:S_deemb(2,2)  R:Y(1,1)        I:Y(1,1)        R:Y(1,2)        I:Y(1,2)        R:Y(2,1)        I:Y(2,1)        R:Y(2,2)        I:Y(2,2)       
  1e+009          0.00036746      -0.00036478     0.580879        -0.0468213      0.400087        -0.0243111      0.410666        -0.0215643      0.464987        -0.18291        0.57906         -0.0374525      0.394442        -0.0186131      0.404649        -0.0158901      0.4416          -0.174905       0.00720785      0.000763682     -0.0073632      -0.000751017    -0.00754483     -0.000829853    0.00937392      0.00369349     
  2e+009          0.00036746      -0.00036478     0.567426        -0.0822119      0.411534        0.00634291      0.401089        0.0100236       0.570165        -0.153048       0.568406        -0.0661145      0.408836        0.0160445       0.398415        0.0193308       0.561887        -0.153009       0.00718953      0.00158146      -0.00696606     -0.00137569     -0.00677854     -0.00140398     0.00706737      0.00308877     
  3e+009          0.00036746      -0.00036478     0.559876        -0.115181       0.420308        0.0362084       0.418046        0.0349632       0.541533        -0.101866       0.564362        -0.0895721      0.418356        0.0568342       0.416176        0.0554795       0.547839        -0.0796612      0.00727457      0.00235016      -0.00718232     -0.00200634     -0.00714746     -0.00197736     0.00758763      0.00221672     
  4e+009          0.00036746      -0.00036478     0.549029        -0.15225        0.430269        0.0313213       0.430805        0.0352979       0.507005        -0.173455       0.55558         -0.115733       0.426396        0.0617296       0.426541        0.0657601       0.511554        -0.129847       0.00739813      0.00306824      -0.00737856     -0.00261826     -0.00736679     -0.0026906      0.00813243      0.00347651     
  5e+009          0.00036746      -0.00036478     0.528446        -0.184958       0.44341         0.0422347       0.43438         0.0473571       0.515008        -0.194427       0.540048        -0.143927       0.437087        0.0772041       0.42763         0.081526        0.5216          -0.160613       0.00747913      0.00386838      -0.00735087     -0.00328139     -0.00716546     -0.00331583     0.00773031      0.00424313     
  6e+009          0.00036746      -0.00036478     0.512548        -0.211733       0.457892        0.0549248       0.455998        0.0554706       0.495766        -0.193313       0.529567        -0.16358        0.450103        0.0996217       0.448207        0.0999599       0.5121          -0.148985       0.00760897      0.00459588      -0.00752841     -0.00392877     -0.00749305     -0.0039257      0.00798958      0.00441999     
  7e+009          0.00036746      -0.00036478     0.494456        -0.242957       0.471191        0.0457084       0.47046         0.0513254       0.464236        -0.245307       0.51548         -0.184851       0.461999        0.103439        0.460644        0.109032        0.484816        -0.177311       0.00777158      0.00531513      -0.00773204     -0.00451182     -0.00767557     -0.00460484     0.00836734      0.00535503     
  8e+009          0.00036746      -0.00036478     0.468601        -0.266846       0.485992        0.050825        0.481179        0.0560623       0.462345        -0.258983       0.49663         -0.208203       0.473195        0.113562        0.467816        0.118121        0.48421         -0.204832       0.00788432      0.00609504      -0.00771416     -0.00514135     -0.00758802     -0.00518751     0.00812854      0.00611641     
  9e+009          0.00036746      -0.00036478     0.448011        -0.287656       0.503159        0.0532468       0.502322        0.0544495       0.440518        -0.264608       0.482568        -0.22134        0.488882        0.12734         0.487838        0.128323        0.471331        -0.203342       0.0080813       0.00678259      -0.00794453     -0.00578199     -0.00791864     -0.00579236     0.00841272      0.00653669     
  1e+010          0.00036746      -0.00036478     0.426501        -0.310261       0.516037        0.041613        0.516928        0.0464483       0.408101        -0.298051       0.465668        -0.238885       0.50196         0.128649        0.501961        0.133517        0.446136        -0.220536       0.0082806       0.00753852      -0.0081729      -0.00637888     -0.00813394     -0.00646814     0.00878565      0.00735853     
  1.1e+010        0.00036746      -0.00036478     0.397715        -0.326532       0.532776        0.0374903       0.529721        0.0430396       0.399875        -0.309337       0.446562        -0.254554       0.516341        0.133545        0.51236         0.138385        0.440797        -0.242338       0.00845086      0.00827182      -0.00825364     -0.0069897      -0.00813828     -0.007043       0.00866383      0.00809952     
  1.2e+010        0.00036746      -0.00036478     0.375502        -0.341256       0.545976        0.0311721       0.546753        0.0319316       0.375582        -0.318656       0.42925         -0.265504       0.528315        0.139622        0.528928        0.140537        0.425034        -0.245025       0.00870264      0.00897342      -0.00845641     -0.00759305     -0.00845907     -0.0076158      0.00897482      0.0086343      
  1.3e+010        0.00036746      -0.00036478     0.35181         -0.348445       0.554359        0.0219115       0.5574          0.0265921       0.339913        -0.335364       0.410458        -0.265505       0.538158        0.146379        0.540132        0.151744        0.397354        -0.244504       0.00901565      0.00955999      -0.0087299      -0.00824885     -0.00871284     -0.00837078     0.00947789      0.00929445     
  1.4e+010        0.00036746      -0.00036478     0.328581        -0.360028       0.575053        0.012247        0.572595        0.0184187       0.336384        -0.341618       0.401832        -0.278369       0.56125         0.147703        0.556986        0.153114        0.400362        -0.262306       0.0090707       0.0102617       -0.00891149     -0.00884826     -0.00877298     -0.00890341     0.0092723       0.00997681     
  1.5e+010        0.00036746      -0.00036478     0.306673        -0.371329       0.58724         -0.00121391     0.588562        -0.00248005     0.312892        -0.349054       0.389858        -0.286486       0.579473        0.146325        0.581257        0.145437        0.390925        -0.267721       0.00940479      0.010986        -0.00927467     -0.0094554      -0.00931865     -0.00945918     0.00960115      0.0106186      
  1.6e+010        0.00036746      -0.00036478     0.288629        -0.378578       0.595092        -0.0206398      0.598681        -0.0180163      0.285258        -0.367614       0.370854        -0.299502       0.587264        0.136064        0.589862        0.139478        0.366589        -0.27648        0.0097259       0.0117517       -0.00959101     -0.0099501      -0.0095983      -0.0100482      0.0100954       0.0113624      
  1.7e+010        0.00036746      -0.00036478     0.264239        -0.384373       0.608758        -0.0329019      0.607854        -0.026623       0.276662        -0.367122       0.35395         -0.309087       0.597317        0.13075         0.594705        0.136411        0.358196        -0.294064       0.00992769      0.0123932       -0.00970975     -0.0104337      -0.00958456     -0.0105075      0.0100457       0.012049       
  1.8e+010        0.00036746      -0.00036478     0.24667         -0.389426       0.61889         -0.0503242      0.619625        -0.0486543      0.251148        -0.373104       0.341788        -0.30806        0.609884        0.13218         0.610124        0.13406         0.343447        -0.289304       0.0103154       0.0129979       -0.010102       -0.0110587      -0.0100805      -0.0110989      0.0105434       0.0126077      
  1.9e+010        0.00036746      -0.00036478     0.224805        -0.397991       0.621088        -0.0738362      0.62423         -0.0704726      0.228922        -0.384373       0.321808        -0.309923       0.618269        0.124044        0.620379        0.128191        0.321705        -0.290891       0.0108808       0.0137381       -0.0105908      -0.0116556      -0.0105718      -0.0117702      0.0111648       0.0133571      
  2e+010          0.00036746      -0.00036478     0.202216        -0.399012       0.628788        -0.0871432      0.628854        -0.082017       0.218994        -0.385585       0.310632        -0.31736        0.627948        0.119403        0.626516        0.124066        0.318406        -0.303232       0.011029        0.0143035       -0.010704       -0.0120848      -0.0106034      -0.0121558      0.0110918       0.0139011      
  2.1e+010        0.00036746      -0.00036478     0.185042        -0.400607       0.631397        -0.10603        0.634715        -0.104385       0.199425        -0.387029       0.296927        -0.312008       0.637031        0.117374        0.639688        0.120176        0.306423        -0.296844       0.0116185       0.0148814       -0.0112077      -0.0126437      -0.0112173      -0.012744       0.0116668       0.0144173      
  2.2e+010        0.00036746      -0.00036478     0.166244        -0.405473       0.631644        -0.130749       0.634762        -0.124474       0.175935        -0.397013       0.282162        -0.317033       0.644961        0.106925        0.645527        0.114208        0.289462        -0.296887       0.0120674       0.0155975       -0.0117165      -0.0131583      -0.0116051      -0.0133206      0.0122553       0.0150515      
  2.3e+010        0.00036746      -0.00036478     0.146472        -0.401745       0.634843        -0.144029       0.636235        -0.13789        0.167401        -0.396811       0.270731        -0.320127       0.650808        0.101571        0.649833        0.107994        0.286409        -0.308996       0.0123351       0.0160698       -0.0118406      -0.0135271      -0.0117077      -0.0136444      0.012202        0.0155622      
  2.4e+010        0.00036746      -0.00036478     0.131556        -0.401226       0.642982        -0.158298       0.643097        -0.156982       0.148813        -0.394445       0.261491        -0.323523       0.660342        0.1016          0.659759        0.102857        0.275096        -0.315678       0.0125139       0.0167607       -0.0119782      -0.0142361      -0.0119429      -0.0142518      0.0123725       0.0163468      
  2.5e+010        0.00036746      -0.00036478     0.111937        -0.405709       0.630588        -0.183984       0.638838        -0.180997       0.123424        -0.404101       0.245126        -0.32644        0.660366        0.0887758       0.666872        0.0948813       0.255525        -0.308536       0.013173        0.0175051       -0.0126097      -0.0146515      -0.0126331      -0.0149092      0.0132925       0.0169164      
  2.6e+010        0.00036746      -0.00036478     0.0953164       -0.384955       0.637355        -0.188348       0.63669         -0.178843       0.120287        -0.387874       0.233122        -0.305544       0.668073        0.0974107       0.663319        0.105768        0.253638        -0.303924       0.0137333       0.0176144       -0.0129366      -0.0151443      -0.0126686      -0.0152374      0.0133094       0.0171798      
  2.7e+010        0.00036746      -0.00036478     0.0897676       -0.398333       0.649855        -0.209941       0.65177         -0.213214       0.101807        -0.393305       0.237933        -0.33158        0.681932        0.0905929       0.685026        0.0883957       0.248222        -0.321932       0.0132454       0.018583        -0.0127267      -0.0158475      -0.0128377      -0.0158637      0.0132223       0.0181669      
  2.8e+010        0.00036746      -0.00036478     0.0719876       -0.398071       0.631161        -0.237991       0.637225        -0.236165       0.0867645       -0.404405       0.220646        -0.316884       0.684567        0.0722458       0.689137        0.0763701       0.23435         -0.312799       0.0147658       0.0190252       -0.0140742      -0.0161527      -0.014091       -0.0163435      0.0145399       0.0186416      
  2.9e+010        0.00036746      -0.00036478     0.0572996       -0.395556       0.630915        -0.250874       0.636617        -0.247618       0.074775        -0.40212        0.216789        -0.329187       0.68775         0.0673117       0.69143         0.0728789       0.233335        -0.325746       0.0144849       0.0194754       -0.0138364      -0.0163967      -0.0137976      -0.0166002      0.0141915       0.0190404      
  3e+010          0.00036746      -0.00036478     0.0418013       -0.391311       0.628438        -0.269526       0.631321        -0.267013       0.0581519       -0.399479       0.206721        -0.315882       0.698234        0.0636807       0.699588        0.0672862       0.226438        -0.320381       0.0154823       0.0200057       -0.0147022      -0.0170726      -0.0146529      -0.0171861      0.0149265       0.019669       
  3.1e+010        0.00036746      -0.00036478     0.0329854       -0.393522       0.623285        -0.288127       0.628718        -0.287652       0.0406893       -0.400573       0.209923        -0.331901       0.710208        0.0498661       0.714981        0.0527781       0.217521        -0.331995       0.0154353       0.0208275       -0.0149938      -0.017689       -0.0150345      -0.0178665      0.0152603       0.0206525      
  3.2e+010        0.00036746      -0.00036478     0.013026        -0.392204       0.607152        -0.29951        0.614764        -0.303058       0.0195659       -0.401195       0.192451        -0.331032       0.693872        0.0419724       0.702468        0.0428138       0.201013        -0.329235       0.0161388       0.0209251       -0.0153349      -0.017556       -0.0155172      -0.017781       0.0159801       0.0206783      
  3.3e+010        0.00036746      -0.00036478     0.000955855     -0.386278       0.614048        -0.322739       0.616104        -0.322355       0.0133257       -0.392869       0.182506        -0.337384       0.704975        0.0367296       0.706428        0.0383713       0.19819         -0.338009       0.0162816       0.0217943       -0.0155132      -0.0183115      -0.0155063      -0.0183857      0.0159008       0.0214205      
  3.4e+010        0.00036746      -0.00036478     -0.0156066      -0.386812       0.593261        -0.337519       0.597824        -0.341482       -0.0119805      -0.391559       0.167814        -0.324445       0.701555        0.0309949       0.70742         0.0297173       0.173386        -0.326107       0.0176199       0.022381        -0.0166224      -0.0189948      -0.0168012      -0.0191154      0.0174384       0.0222775      
  3.5e+010        0.00036746      -0.00036478     -0.0357776      -0.375395       0.583332        -0.351424       0.593449        -0.347518       -0.0211208      -0.393611       0.157841        -0.334577       0.697584        0.0213462       0.703904        0.0304222       0.174392        -0.336057       0.0174697       0.0227471       -0.0164362      -0.0188961      -0.0163511      -0.0192837      0.0170274       0.0223472      
  3.6e+010        0.00036746      -0.00036478     -0.0514273      -0.367529       0.578675        -0.360751       0.57527         -0.368733       -0.0489573      -0.374649       0.141647        -0.342532       0.695662        0.0246846       0.697307        0.0156618       0.150233        -0.343671       0.0175674       0.0237077       -0.0162375      -0.0199961      -0.0165291      -0.0198225      0.0173267       0.023496       
  3.7e+010        0.00036746      -0.00036478     -0.063899       -0.348554       0.561149        -0.363681       0.566983        -0.363806       -0.0612474      -0.358819       0.133208        -0.319818       0.69009         0.0277173       0.695048        0.0309729       0.130222        -0.313567       0.0186675       0.0238642       -0.0173808      -0.0203414      -0.0174188      -0.020568       0.0189237       0.0237845      
  3.8e+010        0.00036746      -0.00036478     -0.0618323      -0.32485        0.564642        -0.355986       0.568255        -0.351632       -0.0527599      -0.333132       0.119548        -0.289995       0.689048        0.0439252       0.68955         0.0496507       0.132586        -0.292319       0.019679        0.0237722       -0.017896       -0.0206204      -0.0177488      -0.0207936      0.0192516       0.0234696      
  3.9e+010        0.00036746      -0.00036478     -0.038805       -0.325033       0.596259        -0.377795       0.599204        -0.376555       -0.0352254      -0.330612       0.15459         -0.281795       0.732148        0.0556144       0.733496        0.0584606       0.16188         -0.279986       0.0193292       0.024257        -0.0184154      -0.0216056      -0.018374       -0.0217201      0.0191802       0.0240077      
  4e+010          0.00036746      -0.00036478     -0.0408436      -0.34079        0.586226        -0.411278       0.595505        -0.412306       -0.0321754      -0.351576       0.158689        -0.288507       0.748154        0.0366594       0.756127        0.0420007       0.168511        -0.287177       0.0201629       0.0251684       -0.0194787      -0.0221615      -0.0195463      -0.0225335      0.0199312       0.0248542      
  4.1e+010        0.00036746      -0.00036478     -0.0634279      -0.345107       0.5682          -0.439139       0.573964        -0.434387       -0.0531181      -0.367596       0.168564        -0.286368       0.76689         0.0158644       0.768968        0.0238004       0.187648        -0.296942       0.021426        0.0250151       -0.0209301      -0.0219392      -0.0207656      -0.0222187      0.0205977       0.0247749      
  4.2e+010        0.00036746      -0.00036478     -0.0668511      -0.351076       0.563788        -0.453598       0.566956        -0.461178       -0.0715423      -0.361096       0.181224        -0.315368       0.774102        0.00357672      0.781936        -0.000599319    0.186185        -0.319391       0.0205335       0.0255696       -0.020372       -0.0222942      -0.020699       -0.0224085      0.0202869       0.0255337      
