! VERSION = 6.00
!Measured by: Marcus Mueller on Fri Nov 16 09:38:10 WEST 2018
!TECHNOLOGY: Teledyne
!WAFER: w096
!DIE Nr.: y
!TRANSISTOR Name: 0p25x10x1_full
!Emitter size: 0.25x10
!Configuration: CBE
!Temperature: 298
BEGIN_HEADER
 ICCAP_INPUTS
  vs         V  S GROUND GND 0 CON        0
  ve         V  E GROUND GND 0 CON        0
  vc         V  C GROUND SMU_C 0.0375 SYNC       1 -0.1 vb
  vb         V  B GROUND SMU_B 0.003 LIN        2    0.6        0.83       24   0.01      
  freq       F  LIN        1    1e+009     5e+010     50   1e+009    
 ICCAP_OUTPUTS
  ib         I  B GROUND SMU_B B
  ic         I  C GROUND SMU_C B
  S          S  B C GROUND NWA B
  S_deemb    S P1 P2 GROUND n/a B
  Y          Y P1 P2 GROUND n/a B
 ICCAP_VALUES
  MEAS_BY "Marcus Mueller"
  TECH "Teledyne"
  WAFER "w096"
  DIE "y"
  TRAN "0p25x10x1_full"
  WIDTH "0.25"
  LENGTH "10"
  CONFIG "CBE"
  TEMP "298"
END_HEADER

BEGIN_DB
 ICCAP_VAR vs         0              
 ICCAP_VAR ve         0              
 ICCAP_VAR vc         0.5            
 ICCAP_VAR vb         0.6            

 #freq            ib              ic              R:S(1,1)        I:S(1,1)        R:S(1,2)        I:S(1,2)        R:S(2,1)        I:S(2,1)        R:S(2,2)        I:S(2,2)        R:S_deemb(1,1)  I:S_deemb(1,1)  R:S_deemb(1,2)  I:S_deemb(1,2)  R:S_deemb(2,1)  I:S_deemb(2,1)  R:S_deemb(2,2)  I:S_deemb(2,2)  R:Y(1,1)        I:Y(1,1)        R:Y(1,2)        I:Y(1,2)        R:Y(2,1)        I:Y(2,1)        R:Y(2,2)        I:Y(2,2)       
  1e+009          2.1542e-006     1.3428e-005     0.991594        -0.0453003      0.0038198       0.0153711       -0.0505954      0.0255936       0.887865        -0.35361        0.893234        -0.0443975      0.0969907       0.0180672       0.0558272       0.0277457       0.779794        -0.300362       0.00114106      0.000524048     -0.00107512     -0.000424606    -0.000580053    -0.000443902    0.00187357      0.00372151     
  2e+009          2.1542e-006     1.3428e-005     0.987893        -0.0891154      0.00612772      0.030243        -0.0453084      0.0373797       1.014           -0.239487       0.887407        -0.0866678      0.105668        0.0514665       0.0592552       0.0575386       0.896564        -0.226518       0.00115609      0.00102759      -0.00106031     -0.000757998    -0.000541594    -0.000738632    0.000797555     0.00253983     
  3e+009          2.1542e-006     1.3428e-005     0.982575        -0.13245        0.00681707      0.0455908       -0.0448698      0.0531875       0.990894        -0.117062       0.877018        -0.127153       0.115505        0.0883814       0.0678757       0.0947686       0.882228        -0.117892       0.0011895       0.00153576      -0.00115545     -0.00116158     -0.000614097    -0.00116072     0.00114537      0.00142449     
  4e+009          2.1542e-006     1.3428e-005     0.973472        -0.176401       0.0154838       0.0591575       -0.0366565      0.0724056       0.956995        -0.255014       0.86459         -0.16581        0.126486        0.108629        0.0827494       0.120832        0.845646        -0.2125         0.00122476      0.00203013      -0.00115987     -0.00152189     -0.000639752    -0.00155424     0.00132569      0.00259952     
  5e+009          2.1542e-006     1.3428e-005     0.964225        -0.219754       0.0201331       0.0727965       -0.0294416      0.0843858       0.971469        -0.255937       0.85017         -0.204215       0.140249        0.13199         0.0927354       0.142408        0.84703         -0.235336       0.00125669      0.00253167      -0.0011957      -0.0018636      -0.000636707    -0.00184715     0.00120483      0.00288753     
  6e+009          2.1542e-006     1.3428e-005     0.952487        -0.260173       0.0248308       0.0877278       -0.0248701      0.102663        0.965594        -0.237455       0.831966        -0.237577       0.15502         0.160785        0.11106         0.174358        0.839293        -0.223076       0.00130304      0.00301979      -0.00125628     -0.00226912     -0.000722381    -0.0022894      0.00126438      0.00283513     
  7e+009          2.1542e-006     1.3428e-005     0.936591        -0.302233       0.0387957       0.0985019       -0.0110377      0.117857        0.927361        -0.351222       0.81243         -0.271167       0.17333         0.175213        0.131253        0.193787        0.804686        -0.286349       0.00135657      0.00352314      -0.00129386     -0.00261714     -0.000751478    -0.00266874     0.00138691      0.00372274     
  8e+009          2.1542e-006     1.3428e-005     0.921741        -0.341802       0.04485         0.110208        -0.00288741     0.12801         0.935913        -0.345305       0.792065        -0.302917       0.190092        0.192037        0.145262        0.209474        0.79558         -0.302232       0.00140726      0.00401374      -0.00134214     -0.00294033     -0.000766851    -0.00295118     0.00137063      0.00399155     
  9e+009          2.1542e-006     1.3428e-005     0.901892        -0.384205       0.0536897       0.123666        0.0072291       0.145237        0.926652        -0.35044        0.767142        -0.329503       0.208894        0.215144        0.169769        0.233896        0.782375        -0.309283       0.00148235      0.00451262      -0.00138946     -0.00336304     -0.000864211    -0.00339885     0.00140137      0.00421628     
  1e+010          2.1542e-006     1.3428e-005     0.883899        -0.416995       0.0691164       0.130415        0.022741        0.156068        0.883067        -0.43138        0.744913        -0.354572       0.228929        0.223448        0.191373        0.246672        0.748003        -0.348615       0.00154634      0.00498823      -0.00144704     -0.00369616     -0.000903733    -0.00376689     0.00154184      0.00490508     
  1.1e+010        2.1542e-006     1.3428e-005     0.856872        -0.458589       0.0778778       0.140587        0.0327468       0.163688        0.886947        -0.433167       0.718853        -0.382397       0.249668        0.235649        0.208525        0.258103        0.735743        -0.362119       0.00161781      0.0055277       -0.00151493     -0.00404604     -0.000925653    -0.00407173     0.00153936      0.00520499     
  1.2e+010        2.1542e-006     1.3428e-005     0.834919        -0.493239       0.0883484       0.150234        0.0463558       0.178109        0.867863        -0.459425       0.691431        -0.400077       0.267712        0.249729        0.234981        0.272314        0.714534        -0.378982       0.00172694      0.0060035       -0.0015363      -0.00444161     -0.00102928     -0.00450113     0.00159163      0.00562537     
  1.3e+010        2.1542e-006     1.3428e-005     0.808158        -0.51472        0.105685        0.160757        0.0645466       0.19266         0.81341         -0.526159       0.665585        -0.40767        0.286706        0.260437        0.255439        0.287924        0.676504        -0.39848        0.00185949      0.00637156      -0.00159242     -0.00486389     -0.00105377     -0.00497542     0.00179409      0.0061947      
  1.4e+010        2.1542e-006     1.3428e-005     0.77825         -0.55296        0.121663        0.167377        0.0789962       0.195474        0.8213          -0.520408       0.644113        -0.430417       0.31672         0.268467        0.278969        0.293192        0.673029        -0.404516       0.00187728      0.00693176      -0.00176024     -0.00524845     -0.00115895     -0.00526996     0.00172616      0.00643673     
  1.5e+010        2.1542e-006     1.3428e-005     0.742414        -0.59552        0.137428        0.17102         0.102227        0.203084        0.794304        -0.552502       0.6225          -0.447621       0.341256        0.271268        0.315391        0.29489         0.654281        -0.427421       0.00192889      0.00747701      -0.00184669     -0.00561543     -0.00137767     -0.00569047     0.0017192       0.00701143     
  1.6e+010        2.1542e-006     1.3428e-005     0.732329        -0.604345       0.156241        0.16955         0.121065        0.204938        0.740548        -0.619314       0.599353        -0.460794       0.358048        0.263176        0.33158         0.291214        0.620349        -0.449734       0.00206029      0.00793049      -0.00195512     -0.00587806     -0.00142815     -0.00598398     0.00191043      0.00763555     
  1.7e+010        2.1542e-006     1.3428e-005     0.69417         -0.639757       0.168548        0.175199        0.130878        0.209397        0.745276        -0.603354       0.570482        -0.478869       0.375756        0.263712        0.342951        0.291828        0.604045        -0.454603       0.00216999      0.00849495      -0.0020363      -0.00621195     -0.0014224      -0.00625283     0.00199417      0.00793198     
  1.8e+010        2.1542e-006     1.3428e-005     0.66158         -0.66736        0.188325        0.177059        0.155558        0.213184        0.700276        -0.641823       0.544792        -0.484524       0.398714        0.269247        0.373521        0.296093        0.575107        -0.467698       0.00228647      0.00901793      -0.00210533     -0.00671751     -0.0015722      -0.00679482     0.00209314      0.00854889     
  1.9e+010        2.1542e-006     1.3428e-005     0.629574        -0.69232        0.205166        0.16698         0.174347        0.208633        0.658727        -0.681185       0.521509        -0.491989       0.413287        0.260139        0.390204        0.291351        0.550063        -0.475896       0.00246092      0.00948643      -0.00225061     -0.00698981     -0.00168312     -0.00712658     0.00228727      0.00902518     
  2e+010          2.1542e-006     1.3428e-005     0.587297        -0.710977       0.217146        0.168866        0.186863        0.207748        0.650595        -0.678242       0.494535        -0.500828       0.42999         0.258989        0.405113        0.287931        0.536437        -0.478093       0.00262507      0.0100283       -0.00235355     -0.00735268     -0.00177249     -0.00743569     0.00237036      0.00934072     
  2.1e+010        2.1542e-006     1.3428e-005     0.557027        -0.735809       0.231701        0.164217        0.20739         0.204458        0.615637        -0.701703       0.477094        -0.501704       0.445935        0.258179        0.426987        0.286528        0.514633        -0.484518       0.00274334      0.0104338       -0.00244456     -0.00773066     -0.00192365     -0.00785917     0.00248932      0.00983592     
  2.2e+010        2.1542e-006     1.3428e-005     0.527324        -0.748174       0.249943        0.151214        0.224375        0.195718        0.560732        -0.740855       0.451481        -0.509181       0.463052        0.245032        0.442445        0.281185        0.491047        -0.49007        0.00293987      0.011022        -0.00266121     -0.00806745     -0.00201408     -0.00825865     0.00269198      0.010354       
  2.3e+010        2.1542e-006     1.3428e-005     0.489615        -0.759997       0.257256        0.150979        0.23072         0.193697        0.558599        -0.733662       0.431219        -0.512923       0.472358        0.242387        0.450923        0.275028        0.481357        -0.490296       0.00311159      0.0114353       -0.00273983     -0.0083348      -0.00210878     -0.00846972     0.00278477      0.010587       
  2.4e+010        2.1542e-006     1.3428e-005     0.456457        -0.774094       0.271878        0.156497        0.252994        0.195747        0.538755        -0.748301       0.41445         -0.514731       0.490712        0.247938        0.474647        0.273427        0.457532        -0.503923       0.00313015      0.0119163       -0.00269114     -0.00887696     -0.00219292     -0.00897787     0.00276013      0.0112647      
  2.5e+010        2.1542e-006     1.3428e-005     0.429558        -0.785417       0.284302        0.134453        0.268189        0.181318        0.46723         -0.786654       0.388716        -0.516533       0.499011        0.228734        0.486475        0.262907        0.435497        -0.504881       0.00347004      0.0124856       -0.00296112     -0.00912146     -0.00237347     -0.00936447     0.00306655      0.0117463      
  2.6e+010        2.1542e-006     1.3428e-005     0.377465        -0.780294       0.29892         0.14326         0.272339        0.186343        0.473438        -0.765043       0.366052        -0.504196       0.510687        0.237683        0.485916        0.271857        0.425931        -0.487675       0.00374846      0.0127943       -0.00309029     -0.0095976      -0.0023402      -0.00968798     0.00323708      0.011807       
  2.7e+010        2.1542e-006     1.3428e-005     0.372887        -0.803399       0.319924        0.142112        0.30886         0.181599        0.438992        -0.790817       0.367861        -0.513943       0.535625        0.235055        0.526276        0.256577        0.402377        -0.513295       0.0035127       0.0133043       -0.00304076     -0.0101354      -0.00263463     -0.0102589      0.00311699      0.0128211      
  2.8e+010        2.1542e-006     1.3428e-005     0.32073         -0.809883       0.325985        0.107454        0.315806        0.153669        0.392605        -0.811087       0.339441        -0.51314        0.543004        0.209025        0.533126        0.240967        0.391454        -0.508996       0.00404925      0.0139603       -0.00350457     -0.0103426      -0.0029252      -0.0105836      0.00348452      0.0131603      
  2.9e+010        2.1542e-006     1.3428e-005     0.297104        -0.811013       0.334215        0.106788        0.323365        0.153025        0.375549        -0.804278       0.325609        -0.51582        0.550149        0.205535        0.540747        0.237766        0.382405        -0.507964       0.0041376       0.0143633       -0.00356938     -0.0106164      -0.00297915     -0.0108646      0.00357124      0.0134279      
  3e+010          2.1542e-006     1.3428e-005     0.249741        -0.818983       0.345066        0.0963647       0.336258        0.13905         0.349885        -0.814996       0.310872        -0.51396        0.567725        0.199699        0.55563         0.228069        0.366116        -0.511832       0.00431393      0.0149125       -0.00374513     -0.0111547      -0.00316229     -0.0113092      0.00368266      0.0140351      
  3.1e+010        2.1542e-006     1.3428e-005     0.23915         -0.819221       0.356363        0.0845055       0.351074        0.128541        0.304542        -0.83262        0.310923        -0.516291       0.584676        0.183866        0.579361        0.212232        0.352424        -0.525164       0.00438092      0.0153276       -0.00399399     -0.011492       -0.00347913     -0.0117432      0.00374814      0.0147715      
  3.2e+010        2.1542e-006     1.3428e-005     0.203061        -0.818272       0.348598        0.0717008       0.350621        0.112375        0.255141        -0.827273       0.28521         -0.516262       0.568443        0.174669        0.56912         0.200193        0.325645        -0.521567       0.00478451      0.0157054       -0.00400402     -0.0115756      -0.00358779     -0.011897       0.00420486      0.0150975      
  3.3e+010        2.1542e-006     1.3428e-005     0.154507        -0.826541       0.376356        0.0672063       0.372424        0.11098         0.255068        -0.828081       0.256794        -0.525562       0.59245         0.167625        0.58386         0.195482        0.318177        -0.521065       0.00483073      0.0167587       -0.00415426     -0.0123319      -0.00356598     -0.0125149      0.00417591      0.0156348      
  3.4e+010        2.1542e-006     1.3428e-005     0.132782        -0.822285       0.367829        0.0448931       0.37234         0.0814622       0.192657        -0.839567       0.260875        -0.507848       0.588334        0.157096        0.586973        0.177994        0.282518        -0.524198       0.00530448      0.0166633       -0.00443487     -0.0125562      -0.00404099     -0.0127899      0.00474207      0.0164748      
  3.5e+010        2.1542e-006     1.3428e-005     0.0939706       -0.817263       0.372747        0.038675        0.372149        0.0883895       0.178168        -0.833031       0.219831        -0.518715       0.58991         0.147925        0.585196        0.184542        0.292417        -0.515226       0.00551379      0.0176692       -0.0045248      -0.012789       -0.00378605     -0.0131529      0.00468358      0.016277       
  3.6e+010        2.1542e-006     1.3428e-005     0.0705505       -0.80289        0.383075        0.0459789       0.385761        0.0731108       0.129727        -0.833118       0.221053        -0.506186       0.59584         0.1529          0.592835        0.164878        0.240157        -0.531499       0.00564407      0.0177976       -0.00431436     -0.0135617      -0.00404259     -0.0136498      0.00491319      0.0177336      
  3.7e+010        2.1542e-006     1.3428e-005     0.00806658      -0.781841       0.387844        0.0214138       0.39329         0.0680953       0.0841257       -0.813163       0.166622        -0.501144       0.596681        0.13673         0.596926        0.166954        0.233337        -0.501037       0.0064214       0.0193369       -0.00484826     -0.0142538      -0.00421891     -0.0146494      0.00556161      0.0179393      
  3.8e+010        2.1542e-006     1.3428e-005     0.0281623       -0.762821       0.397909        0.0411806       0.397339        0.0823565       0.0988646       -0.781681       0.187251        -0.46523        0.594687        0.164319        0.587594        0.190318        0.22804         -0.468316       0.00666477      0.0183521       -0.00498261     -0.0143551      -0.0043563      -0.0145748      0.00603192      0.0175682      
  3.9e+010        2.1542e-006     1.3428e-005     0.0168015       -0.768397       0.44985         0.0211579       0.452421        0.0624448       0.0884766       -0.78064        0.195994        -0.458604       0.648827        0.16672         0.644198        0.191995        0.242881        -0.459515       0.006382        0.0194157       -0.00537716     -0.0156626      -0.00479239     -0.0159106      0.00572585      0.01846        
  4e+010          2.1542e-006     1.3428e-005     0.00889288      -0.780743       0.452105        -0.0179298      0.462967        0.0271702       0.081533        -0.80208        0.205844        -0.460468       0.665631        0.145185        0.665051        0.176054        0.258053        -0.463493       0.0066585       0.0197421       -0.00602677     -0.0157424      -0.00538018     -0.0161492      0.00588758      0.0187029      
  4.1e+010        2.1542e-006     1.3428e-005     -0.0604698      -0.77605        0.438105        -0.056011       0.451412        -0.0111478      0.0429465       -0.809907       0.187652        -0.478841       0.682587        0.108666        0.68049         0.143443        0.27122         -0.478129       0.00712426      0.0209755       -0.0067135      -0.0161066      -0.00593848     -0.0165225      0.00603178      0.0191705      
  4.2e+010        2.1542e-006     1.3428e-005     -0.0526         -0.780199       0.449798        -0.0562897      0.46122         -0.0248466      0.0107519       -0.811072       0.213763        -0.481642       0.695303        0.105143        0.697175        0.124129        0.250768        -0.500166       0.00682646      0.0207586       -0.00659658     -0.0164327      -0.00620845     -0.0167158      0.00595192      0.0201921      
