! VERSION = 6.00
!Measured by: Marcus Mueller on Fri Nov 16 09:37:35 WEST 2018
!TECHNOLOGY: Teledyne
!WAFER: w096
!DIE Nr.: y
!TRANSISTOR Name: 0p25x10x1_full
!Emitter size: 0.25x10
!Configuration: CBE
!Temperature: 298
BEGIN_HEADER
 ICCAP_INPUTS
  vs         V  S GROUND GND 0 CON        0
  ve         V  E GROUND GND 0 CON        0
  vc         V  C GROUND SMU_C 0.0375 SYNC       1 -0.3 vb
  vb         V  B GROUND SMU_B 0.003 LIN        2    0.6        0.83       24   0.01      
  freq       F  LIN        1    1e+009     5e+010     50   1e+009    
 ICCAP_OUTPUTS
  ib         I  B GROUND SMU_B B
  ic         I  C GROUND SMU_C B
  S          S  B C GROUND NWA B
  S_deemb    S P1 P2 GROUND n/a B
  Y          Y P1 P2 GROUND n/a B
 ICCAP_VALUES
  MEAS_BY "Marcus Mueller"
  TECH "Teledyne"
  WAFER "w096"
  DIE "y"
  TRAN "0p25x10x1_full"
  WIDTH "0.25"
  LENGTH "10"
  CONFIG "CBE"
  TEMP "298"
END_HEADER

BEGIN_DB
 ICCAP_VAR vs         0              
 ICCAP_VAR ve         0              
 ICCAP_VAR vc         0.3            
 ICCAP_VAR vb         0.6            

 #freq            ib              ic              R:S(1,1)        I:S(1,1)        R:S(1,2)        I:S(1,2)        R:S(2,1)        I:S(2,1)        R:S(2,2)        I:S(2,2)        R:S_deemb(1,1)  I:S_deemb(1,1)  R:S_deemb(1,2)  I:S_deemb(1,2)  R:S_deemb(2,1)  I:S_deemb(2,1)  R:S_deemb(2,2)  I:S_deemb(2,2)  R:Y(1,1)        I:Y(1,1)        R:Y(1,2)        I:Y(1,2)        R:Y(2,1)        I:Y(2,1)        R:Y(2,2)        I:Y(2,2)       
  1e+009          4.0706e-006     1.1616e-005     0.988167        -0.0503177      0.00791895      0.0202073       -0.0465756      0.031774        0.876459        -0.368431       0.893234        -0.0443975      0.0969907       0.0180672       0.0558272       0.0277457       0.779794        -0.300362       0.00114106      0.000524048     -0.00107512     -0.000424606    -0.000580053    -0.000443902    0.00187357      0.00372151     
  2e+009          4.0706e-006     1.1616e-005     0.982555        -0.0995222      0.0121333       0.0401408       -0.0389515      0.0473549       1.00883         -0.251624       0.887407        -0.0866678      0.105668        0.0514665       0.0592552       0.0575386       0.896564        -0.226518       0.00115609      0.00102759      -0.00106031     -0.000757998    -0.000541594    -0.000738632    0.000797555     0.00253983     
  3e+009          4.0706e-006     1.1616e-005     0.974695        -0.147193       0.0145049       0.0604299       -0.0366691      0.0686836       0.983108        -0.132377       0.877018        -0.127153       0.115505        0.0883814       0.0678757       0.0947686       0.882228        -0.117892       0.0011895       0.00153576      -0.00115545     -0.00116158     -0.000614097    -0.00116072     0.00114537      0.00142449     
  4e+009          4.0706e-006     1.1616e-005     0.96288         -0.19488        0.0272657       0.0769801       -0.0245415      0.0913237       0.944532        -0.273623       0.86459         -0.16581        0.126486        0.108629        0.0827494       0.120832        0.845646        -0.2125         0.00122476      0.00203013      -0.00115987     -0.00152189     -0.000639752    -0.00155424     0.00132569      0.00259952     
  5e+009          4.0706e-006     1.1616e-005     0.949362        -0.241277       0.0346174       0.0933776       -0.0146889      0.105777        0.95597         -0.27799        0.85017         -0.204215       0.140249        0.13199         0.0927354       0.142408        0.84703         -0.235336       0.00125669      0.00253167      -0.0011957      -0.0018636      -0.000636707    -0.00184715     0.00120483      0.00288753     
  6e+009          4.0706e-006     1.1616e-005     0.934053        -0.284406       0.0423843       0.112009        -0.00590971     0.127884        0.947772        -0.262704       0.831966        -0.237577       0.15502         0.160785        0.11106         0.174358        0.839293        -0.223076       0.00130304      0.00301979      -0.00125628     -0.00226912     -0.000722381    -0.0022894      0.00126438      0.00283513     
  7e+009          4.0706e-006     1.1616e-005     0.914279        -0.327808       0.0612094       0.123215        0.0131549       0.144372        0.903411        -0.3761         0.81243         -0.271167       0.17333         0.175213        0.131253        0.193787        0.804686        -0.286349       0.00135657      0.00352314      -0.00129386     -0.00261714     -0.000751478    -0.00266874     0.00138691      0.00372274     
  8e+009          4.0706e-006     1.1616e-005     0.895293        -0.368624       0.0703391       0.137006        0.0235287       0.155569        0.909226        -0.373259       0.792065        -0.302917       0.190092        0.192037        0.145262        0.209474        0.79558         -0.302232       0.00140726      0.00401374      -0.00134214     -0.00294033     -0.000766851    -0.00295118     0.00137063      0.00399155     
  9e+009          4.0706e-006     1.1616e-005     0.871256        -0.411722       0.0831603       0.15248         0.038678        0.175236        0.896477        -0.380823       0.767142        -0.329503       0.208894        0.215144        0.169769        0.233896        0.782375        -0.309283       0.00148235      0.00451262      -0.00138946     -0.00336304     -0.000864211    -0.00339885     0.00140137      0.00421628     
  1e+010          4.0706e-006     1.1616e-005     0.849032        -0.444896       0.102993        0.158055        0.0588414       0.185791        0.846895        -0.459398       0.744913        -0.354572       0.228929        0.223448        0.191373        0.246672        0.748003        -0.348615       0.00154634      0.00498823      -0.00144704     -0.00369616     -0.000903733    -0.00376689     0.00154184      0.00490508     
  1.1e+010        4.0706e-006     1.1616e-005     0.817345        -0.486364       0.115894        0.169514        0.0720265       0.193833        0.847992        -0.463753       0.718853        -0.382397       0.249668        0.235649        0.208525        0.258103        0.735743        -0.362119       0.00161781      0.0055277       -0.00151493     -0.00404604     -0.000925653    -0.00407173     0.00153936      0.00520499     
  1.2e+010        4.0706e-006     1.1616e-005     0.790897        -0.520366       0.130531        0.179235        0.0913612       0.20823         0.824486        -0.490339       0.691431        -0.400077       0.267712        0.249729        0.234981        0.272314        0.714534        -0.378982       0.00172694      0.0060035       -0.0015363      -0.00444161     -0.00102928     -0.00450113     0.00159163      0.00562537     
  1.3e+010        4.0706e-006     1.1616e-005     0.760591        -0.540144       0.151719        0.18666         0.11398         0.220429        0.764795        -0.5523         0.665585        -0.40767        0.286706        0.260437        0.255439        0.287924        0.676504        -0.39848        0.00185949      0.00637156      -0.00159242     -0.00486389     -0.00105377     -0.00497542     0.00179409      0.0061947      
  1.4e+010        4.0706e-006     1.1616e-005     0.727182        -0.576577       0.171569        0.193516        0.131275        0.223127        0.769869        -0.548111       0.644113        -0.430417       0.31672         0.268467        0.278969        0.293192        0.673029        -0.404516       0.00187728      0.00693176      -0.00176024     -0.00524845     -0.00115895     -0.00526996     0.00172616      0.00643673     
  1.5e+010        4.0706e-006     1.1616e-005     0.689857        -0.613964       0.191169        0.195729        0.159619        0.228135        0.738635        -0.57906        0.6225          -0.447621       0.341256        0.271268        0.315391        0.29489         0.654281        -0.427421       0.00192889      0.00747701      -0.00184669     -0.00561543     -0.00137767     -0.00569047     0.0017192       0.00701143     
  1.6e+010        4.0706e-006     1.1616e-005     0.673235        -0.62337        0.212883        0.190108        0.181401        0.22733         0.681132        -0.6383         0.599353        -0.460794       0.358048        0.263176        0.33158         0.291214        0.620349        -0.449734       0.00206029      0.00793049      -0.00195512     -0.00587806     -0.00142815     -0.00598398     0.00191043      0.00763555     
  1.7e+010        4.0706e-006     1.1616e-005     0.62967         -0.655015       0.229637        0.194947        0.194604        0.229377        0.682701        -0.625809       0.570482        -0.478869       0.375756        0.263712        0.342951        0.291828        0.604045        -0.454603       0.00216999      0.00849495      -0.0020363      -0.00621195     -0.0014224      -0.00625283     0.00199417      0.00793198     
  1.8e+010        4.0706e-006     1.1616e-005     0.594136        -0.679258       0.252647        0.193246        0.223663        0.230018        0.634265        -0.659353       0.544792        -0.484524       0.398714        0.269247        0.373521        0.296093        0.575107        -0.467698       0.00228647      0.00901793      -0.00210533     -0.00671751     -0.0015722      -0.00679482     0.00209314      0.00854889     
  1.9e+010        4.0706e-006     1.1616e-005     0.562664        -0.701554       0.271256        0.17883         0.244406        0.219051        0.590154        -0.693722       0.521509        -0.491989       0.413287        0.260139        0.390204        0.291351        0.550063        -0.475896       0.00246092      0.00948643      -0.00225061     -0.00698981     -0.00168312     -0.00712658     0.00228727      0.00902518     
  2e+010          4.0706e-006     1.1616e-005     0.519012        -0.714237       0.285309        0.178346        0.259168        0.21866         0.579963        -0.69003        0.494535        -0.500828       0.42999         0.258989        0.405113        0.287931        0.536437        -0.478093       0.00262507      0.0100283       -0.00235355     -0.00735268     -0.00177249     -0.00743569     0.00237036      0.00934072     
  2.1e+010        4.0706e-006     1.1616e-005     0.486427        -0.735414       0.301558        0.170106        0.282322        0.211196        0.542547        -0.709325       0.477094        -0.501704       0.445935        0.258179        0.426987        0.286528        0.514633        -0.484518       0.00274334      0.0104338       -0.00244456     -0.00773066     -0.00192365     -0.00785917     0.00248932      0.00983592     
  2.2e+010        4.0706e-006     1.1616e-005     0.453873        -0.744749       0.32014         0.15262         0.29861         0.197317        0.487929        -0.741476       0.451481        -0.509181       0.463052        0.245032        0.442445        0.281185        0.491047        -0.49007        0.00293987      0.011022        -0.00266121     -0.00806745     -0.00201408     -0.00825865     0.00269198      0.010354       
  2.3e+010        4.0706e-006     1.1616e-005     0.41687         -0.751987       0.329563        0.150255        0.307856        0.192827        0.483606        -0.7343         0.431219        -0.512923       0.472358        0.242387        0.450923        0.275028        0.481357        -0.490296       0.00311159      0.0114353       -0.00273983     -0.0083348      -0.00210878     -0.00846972     0.00278477      0.010587       
  2.4e+010        4.0706e-006     1.1616e-005     0.382319        -0.763023       0.347517        0.153525        0.332863        0.191293        0.459316        -0.747287       0.41445         -0.514731       0.490712        0.247938        0.474647        0.273427        0.457532        -0.503923       0.00313015      0.0119163       -0.00269114     -0.00887696     -0.00219292     -0.00897787     0.00276013      0.0112647      
  2.5e+010        4.0706e-006     1.1616e-005     0.354786        -0.770956       0.357729        0.125171        0.346275        0.17233         0.391332        -0.775514       0.388716        -0.516533       0.499011        0.228734        0.486475        0.262907        0.435497        -0.504881       0.00347004      0.0124856       -0.00296112     -0.00912146     -0.00237347     -0.00936447     0.00306655      0.0117463      
  2.6e+010        4.0706e-006     1.1616e-005     0.305189        -0.761978       0.373535        0.131519        0.352145        0.176817        0.394522        -0.754177       0.366052        -0.504196       0.510687        0.237683        0.485916        0.271857        0.425931        -0.487675       0.00374846      0.0127943       -0.00309029     -0.0095976      -0.0023402      -0.00968798     0.00323708      0.011807       
  2.7e+010        4.0706e-006     1.1616e-005     0.297044        -0.778323       0.399036        0.126784        0.39219         0.163325        0.356002        -0.776104       0.367861        -0.513943       0.535625        0.235055        0.526276        0.256577        0.402377        -0.513295       0.0035127       0.0133043       -0.00304076     -0.0101354      -0.00263463     -0.0102589      0.00311699      0.0128211      
  2.8e+010        4.0706e-006     1.1616e-005     0.248218        -0.782753       0.400248        0.0872254       0.394829        0.13227         0.314657        -0.789594       0.339441        -0.51314        0.543004        0.209025        0.533126        0.240967        0.391454        -0.508996       0.00404925      0.0139603       -0.00350457     -0.0103426      -0.0029252      -0.0105836      0.00348452      0.0131603      
  2.9e+010        4.0706e-006     1.1616e-005     0.22359         -0.77962        0.409484        0.0847653       0.403959        0.127854        0.29689         -0.781914       0.325609        -0.51582        0.550149        0.205535        0.540747        0.237766        0.382405        -0.507964       0.0041376       0.0143633       -0.00356938     -0.0106164      -0.00297915     -0.0108646      0.00357124      0.0134279      
  3e+010          4.0706e-006     1.1616e-005     0.180701        -0.783845       0.420607        0.0705159       0.4143          0.111158        0.269493        -0.790252       0.310872        -0.51396        0.567725        0.199699        0.55563         0.228069        0.366116        -0.511832       0.00431393      0.0149125       -0.00374513     -0.0111547      -0.00316229     -0.0113092      0.00368266      0.0140351      
  3.1e+010        4.0706e-006     1.1616e-005     0.169965        -0.780918       0.430824        0.0539522       0.430741        0.0949478       0.225633        -0.800566       0.310923        -0.516291       0.584676        0.183866        0.579361        0.212232        0.352424        -0.525164       0.00438092      0.0153276       -0.00399399     -0.011492       -0.00347913     -0.0117432      0.00374814      0.0147715      
  3.2e+010        4.0706e-006     1.1616e-005     0.134962        -0.778371       0.420045        0.0408842       0.426732        0.0757888       0.181862        -0.793249       0.28521         -0.516262       0.568443        0.174669        0.56912         0.200193        0.325645        -0.521567       0.00478451      0.0157054       -0.00400402     -0.0115756      -0.00358779     -0.011897       0.00420486      0.0150975      
  3.3e+010        4.0706e-006     1.1616e-005     0.0882223       -0.782363       0.450344        0.0290523       0.451418        0.0695826       0.177427        -0.791497       0.256794        -0.525562       0.59245         0.167625        0.58386         0.195482        0.318177        -0.521065       0.00483073      0.0167587       -0.00415426     -0.0123319      -0.00356598     -0.0125149      0.00417591      0.0156348      
  3.4e+010        4.0706e-006     1.1616e-005     0.0717994       -0.774166       0.436872        0.00569523      0.443604        0.0364242       0.11895         -0.797732       0.260875        -0.507848       0.588334        0.157096        0.586973        0.177994        0.282518        -0.524198       0.00530448      0.0166633       -0.00443487     -0.0125562      -0.00404099     -0.0127899      0.00474207      0.0164748      
  3.5e+010        4.0706e-006     1.1616e-005     0.0282361       -0.76512        0.441646        -0.00379894     0.44639         0.0443104       0.10782         -0.789974       0.219831        -0.518715       0.58991         0.147925        0.585196        0.184542        0.292417        -0.515226       0.00551379      0.0176692       -0.0045248      -0.012789       -0.00378605     -0.0131529      0.00468358      0.016277       
  3.6e+010        4.0706e-006     1.1616e-005     0.00903528      -0.748052       0.454206        -0.00138866     0.459385        0.0204947       0.0535777       -0.784018       0.221053        -0.506186       0.59584         0.1529          0.592835        0.164878        0.240157        -0.531499       0.00564407      0.0177976       -0.00431436     -0.0135617      -0.00404259     -0.0136498      0.00491319      0.0177336      
  3.7e+010        4.0706e-006     1.1616e-005     -0.0481568      -0.724558       0.45117         -0.0283317      0.461477        0.0122733       0.0201863       -0.7606         0.166622        -0.501144       0.596681        0.13673         0.596926        0.166954        0.233337        -0.501037       0.0064214       0.0193369       -0.00484826     -0.0142538      -0.00421891     -0.0146494      0.00556161      0.0179393      
  3.8e+010        4.0706e-006     1.1616e-005     -0.0282856      -0.705437       0.460859        -0.00963742     0.464401        0.0290944       0.0327313       -0.729086       0.187251        -0.46523        0.594687        0.164319        0.587594        0.190318        0.22804         -0.468316       0.00666477      0.0183521       -0.00498261     -0.0143551      -0.0043563      -0.0145748      0.00603192      0.0175682      
  3.9e+010        4.0706e-006     1.1616e-005     -0.0357623      -0.703771       0.51129         -0.0346777      0.517493        0.00244344      0.0233208       -0.724225       0.195994        -0.458604       0.648827        0.16672         0.644198        0.191995        0.242881        -0.459515       0.006382        0.0194157       -0.00537716     -0.0156626      -0.00479239     -0.0159106      0.00572585      0.01846        
  4e+010          4.0706e-006     1.1616e-005     -0.0422703      -0.715225       0.510431        -0.0752624      0.525253        -0.0332729      0.020291        -0.742779       0.205844        -0.460468       0.665631        0.145185        0.665051        0.176054        0.258053        -0.463493       0.0066585       0.0197421       -0.00602677     -0.0157424      -0.00538018     -0.0161492      0.00588758      0.0187029      
  4.1e+010        4.0706e-006     1.1616e-005     -0.104429       -0.709149       0.492369        -0.113276       0.507914        -0.0708281      -0.0137961      -0.752239       0.187652        -0.478841       0.682587        0.108666        0.68049         0.143443        0.27122         -0.478129       0.00712426      0.0209755       -0.0067135      -0.0161066      -0.00593848     -0.0165225      0.00603178      0.0191705      
  4.2e+010        4.0706e-006     1.1616e-005     -0.0964503      -0.713432       0.504668        -0.117352       0.514979        -0.0875849      -0.0488731      -0.748367       0.213763        -0.481642       0.695303        0.105143        0.697175        0.124129        0.250768        -0.500166       0.00682646      0.0207586       -0.00659658     -0.0164327      -0.00620845     -0.0167158      0.00595192      0.0201921      
