! VERSION = 6.00
!Measured by: Marcus Mueller on Fri Nov 16 09:40:56 WEST 2018
!TECHNOLOGY: Teledyne
!WAFER: w096
!DIE Nr.: y
!TRANSISTOR Name: 0p25x10x1_full
!Emitter size: 0.25x10
!Configuration: CBE
!Temperature: 298
BEGIN_HEADER
 ICCAP_INPUTS
  vs         V  S GROUND GND 0 CON        0
  ve         V  E GROUND GND 0 CON        0
  vc         V  C GROUND SMU_C 0.0375 SYNC       1 0.4 vb
  vb         V  B GROUND SMU_B 0.003 LIN        2    0.6        0.83       24   0.01      
  freq       F  LIN        1    1e+009     5e+010     50   1e+009    
 ICCAP_OUTPUTS
  ib         I  B GROUND SMU_B B
  ic         I  C GROUND SMU_C B
  S          S  B C GROUND NWA B
  S_deemb    S P1 P2 GROUND n/a B
  Y          Y P1 P2 GROUND n/a B
 ICCAP_VALUES
  MEAS_BY "Marcus Mueller"
  TECH "Teledyne"
  WAFER "w096"
  DIE "y"
  TRAN "0p25x10x1_full"
  WIDTH "0.25"
  LENGTH "10"
  CONFIG "CBE"
  TEMP "298"
END_HEADER

BEGIN_DB
 ICCAP_VAR vs         0              
 ICCAP_VAR ve         0              
 ICCAP_VAR vc         1              
 ICCAP_VAR vb         0.6            

 #freq            ib              ic              R:S(1,1)        I:S(1,1)        R:S(1,2)        I:S(1,2)        R:S(2,1)        I:S(2,1)        R:S(2,2)        I:S(2,2)        R:S_deemb(1,1)  I:S_deemb(1,1)  R:S_deemb(1,2)  I:S_deemb(1,2)  R:S_deemb(2,1)  I:S_deemb(2,1)  R:S_deemb(2,2)  I:S_deemb(2,2)  R:Y(1,1)        I:Y(1,1)        R:Y(1,2)        I:Y(1,2)        R:Y(2,1)        I:Y(2,1)        R:Y(2,2)        I:Y(2,2)       
  1e+009          1.8642e-006     1.3558e-005     0.992835        -0.0363799      0.00101364      0.00750591      -0.0535703      0.0166819       0.895309        -0.318318       0.993088        -0.0193744      0.00132743      0.00690381      -0.0513237      0.0143547       0.865789        -0.27924        6.68815e-005    0.000193159     -2.37553e-006   -7.47446e-005   0.000563178     -6.47869e-005   0.000968642     0.0031362      
  2e+009          1.8642e-006     1.3558e-005     0.991266        -0.0725498      0.00206843      0.0151916       -0.0491334      0.0215962       1.0163          -0.213092       0.99226         -0.0378107      0.00177538      0.0143864       -0.046874       0.0190729       0.995734        -0.198369       6.91265e-005    0.000377482     -7.12126e-007   -0.000145076    0.000488331     -0.000134393    -0.00015438     0.00196918     
  3e+009          1.8642e-006     1.3558e-005     0.987828        -0.10793        0.00203079      0.0230747       -0.0500929      0.0294374       0.996422        -0.09291        0.990161        -0.0562629      0.000851116     0.0219021       -0.0490245      0.0252532       1.00508         -0.0361827      8.02333e-005    0.000562251     1.57992e-006    -0.000219553    0.000502198     -0.000230093    -5.98075e-005   0.000354443    
  4e+009          1.8642e-006     1.3558e-005     0.982292        -0.144077       0.00583         0.0303304       -0.0468502      0.0413076       0.971172        -0.212943       0.989001        -0.0741127      0.00296241      0.0292747       -0.0477838      0.0351327       0.974596        -0.0978056      7.76067e-005    0.00074101      -4.32608e-006   -0.00029899     0.000514592     -0.000313808    0.000202678     0.00099352     
  5e+009          1.8642e-006     1.3558e-005     0.976705        -0.180018       0.00763873      0.0376197       -0.0424279      0.0482479       0.984513        -0.214588       0.986827        -0.0933385      0.00407686      0.0362047       -0.0445316      0.0418145       0.985734        -0.123731       8.08947e-005    0.000935149     -1.23993e-006   -0.00036812     0.000493147     -0.000371153    5.8542e-005     0.00124162     
  6e+009          1.8642e-006     1.3558e-005     0.969306        -0.214528       0.00922792      0.0453385       -0.0416665      0.0578616       0.98187         -0.19036        0.983768        -0.112343       0.00388334      0.0436915       -0.045468       0.0502715       0.99812         -0.0702489      8.86351e-005    0.0011275       1.13112e-006    -0.000441416    0.000501739     -0.000462121    -1.66107e-005   0.000692493    
  7e+009          1.8642e-006     1.3558e-005     0.959622        -0.250112       0.0154088       0.051693        -0.0349291      0.0678122       0.95545         -0.29006        0.980941        -0.129728       0.0068189       0.0510646       -0.0431559      0.0592878       0.979424        -0.104357       9.11574e-005    0.00130457      -7.97237e-006   -0.00052322     0.000505927     -0.000546656    0.000136673     0.00105045     
  8e+009          1.8642e-006     1.3558e-005     0.950467        -0.284023       0.0178278       0.0582148       -0.030962       0.074022        0.963696        -0.287089       0.976776        -0.148437       0.00818653      0.057912        -0.0399777      0.0658667       0.981468        -0.133311       0.000102752     0.00149749      6.53591e-007    -0.000593682    0.000496049     -0.000604656    7.72603e-005    0.00133877     
  9e+009          1.8642e-006     1.3558e-005     0.938145        -0.321189       0.0210895       0.0653541       -0.0274004      0.0836253       0.960183        -0.284798       0.972666        -0.165461       0.00908873      0.0656574       -0.0393626      0.0748295       0.992715        -0.104469       0.000111303     0.00167355      -1.44239e-006   -0.00067035     0.000496603     -0.000696117    -6.34542e-006   0.00103499     
  1e+010          1.8642e-006     1.3558e-005     0.926611        -0.350965       0.0280281       0.0701264       -0.0205194      0.0916923       0.928834        -0.358282       0.968239        -0.186045       0.0127562       0.0727504       -0.0370325      0.0835482       0.976969        -0.126517       0.000112139     0.00188742      -1.21246e-005   -0.00075306     0.000506559     -0.000782181    0.000119409     0.00127396     
  1.1e+010        1.8642e-006     1.3558e-005     0.90805         -0.387391       0.0313008       0.0759806       -0.0153999      0.0962743       0.934189        -0.361787       0.964097        -0.200554       0.0151242       0.080125        -0.0324565      0.0897643       0.978768        -0.152182       0.000119099     0.00204097      -7.23436e-006   -0.000830826    0.000487322     -0.000841722    5.91674e-005    0.0015294      
  1.2e+010        1.8642e-006     1.3558e-005     0.894321        -0.420423       0.0341521       0.0813899       -0.0116574      0.105572        0.924899        -0.379992       0.958361        -0.220427       0.0168244       0.0873731       -0.0311319      0.0999484       0.985957        -0.135742       0.000125492     0.00225136      -9.5793e-006    -0.000905158    0.000493306     -0.000943857    3.20258e-006    0.00135353     
  1.3e+010        1.8642e-006     1.3558e-005     0.875143        -0.440783       0.0418387       0.0935832       -0.00310107     0.120928        0.884941        -0.443429       0.952836        -0.237431       0.022005        0.0953452       -0.0268582      0.110041        0.972295        -0.150111       0.000130006     0.00243539      -3.05499e-005   -0.00100263     0.000490122     -0.00105265     0.000109008     0.00151854     
  1.4e+010        1.8642e-006     1.3558e-005     0.857129        -0.476524       0.0513809       0.0971374       0.00766855      0.122075        0.892985        -0.441407       0.95423         -0.251851       0.028834        0.103576        -0.0200378      0.115853        0.975353        -0.176884       7.05197e-005    0.00257889      -5.9659e-005    -0.00109537     0.000454263     -0.00111028     2.48169e-005    0.00178552     
  1.5e+010        1.8642e-006     1.3558e-005     0.829786        -0.518425       0.0586457       0.0996352       0.0179113       0.127938        0.878705        -0.4654         0.946722        -0.269278       0.034544        0.105282        -0.0108944      0.120979        0.987177        -0.167598       9.25448e-005    0.00277967      -0.000107388    -0.0011219      0.00037857      -0.00117606     -8.15501e-005   0.0016803      
  1.6e+010        1.8642e-006     1.3558e-005     0.824848        -0.530295       0.0682834       0.101625        0.0274737       0.133921        0.837546        -0.53501        0.936043        -0.299106       0.0366529       0.105512        -0.0122952      0.122761        0.967315        -0.185458       0.000107624     0.00310557      -0.000100058    -0.00114572     0.00043207      -0.00119459     8.17874e-005    0.00189219     
  1.7e+010        1.8642e-006     1.3558e-005     0.796708        -0.564978       0.0741487       0.106291        0.0338322       0.136309        0.843306        -0.522918       0.927934        -0.31265        0.0372439       0.110985        -0.00953825     0.126001        0.964811        -0.218473       0.000139105     0.00326409      -6.32185e-005   -0.00120648     0.00044345      -0.00122635     3.30307e-005    0.00222573     
  1.8e+010        1.8642e-006     1.3558e-005     0.776547        -0.593336       0.0831368       0.109018        0.0451434       0.142892        0.81539         -0.556703       0.916614        -0.324634       0.0378063       0.11926         -0.00818491     0.136989        0.968373        -0.200828       0.000198285     0.00341912      -4.87205e-005   -0.00129442     0.000459132     -0.00134464     2.28406e-005    0.00204089     
  1.9e+010        1.8642e-006     1.3558e-005     0.750333        -0.623689       0.0931884       0.107647        0.0563879       0.143636        0.780081        -0.603269       0.906271        -0.340718       0.0430366       0.125446        -0.00373672     0.14684         0.948405        -0.220575       0.000229725     0.00361741      -5.67094e-005   -0.0013888      0.000477117     -0.00146365     0.000166209     0.00228458     
  2e+010          1.8642e-006     1.3558e-005     0.720501        -0.646916       0.0991966       0.109591        0.0637868       0.144549        0.77566         -0.604961       0.903405        -0.353705       0.0473538       0.13132         0.00251736      0.150117        0.94943         -0.244762       0.000201236     0.00376016      -5.4233e-005    -0.00145897     0.000452263     -0.00150368     8.90844e-005    0.00252836     
  2.1e+010        1.8642e-006     1.3558e-005     0.694072        -0.67501        0.107521        0.109655        0.0751236       0.147591        0.751046        -0.628129       0.886798        -0.365977       0.0498657       0.137671        0.00740456      0.15968         0.952206        -0.232242       0.000303868     0.00394915      -5.69847e-005   -0.0015395      0.000439143     -0.00162348     7.85244e-005    0.00239912     
  2.2e+010        1.8642e-006     1.3558e-005     0.671108        -0.694124       0.117897        0.105857        0.0847478       0.145968        0.705109        -0.676343       0.876857        -0.388635       0.0567248       0.141961        0.0100421       0.164298        0.934389        -0.241938       0.000296976     0.00421875      -8.25255e-005   -0.00162359     0.000464046     -0.00168779     0.000222618     0.00254473     
  2.3e+010        1.8642e-006     1.3558e-005     0.640383        -0.712846       0.122062        0.106981        0.0904939       0.14518         0.703872        -0.673526       0.868271        -0.400894       0.0612744       0.147316        0.015571        0.168315        0.93307         -0.26889        0.00031785      0.00438063      -7.40659e-005   -0.00169755     0.000459858     -0.00174042     0.000152536     0.00282334     
  2.4e+010        1.8642e-006     1.3558e-005     0.613401        -0.73433        0.126948        0.112303        0.099058        0.152135        0.697612        -0.685268       0.855775        -0.416333       0.0614924       0.153651        0.0196792       0.177751        0.941274        -0.270089       0.00035646      0.00458904      -3.64996e-005   -0.00176165     0.000470523     -0.00184498     5.29776e-005    0.00281116     
  2.5e+010        1.8642e-006     1.3558e-005     0.59117         -0.752227       0.136064        0.103946        0.108967        0.147726        0.632404        -0.737266       0.843648        -0.440706       0.0691214       0.157166        0.0245127       0.182752        0.921611        -0.268757       0.000343651     0.00489475      -7.26813e-005   -0.00185011     0.000476014     -0.00193062     0.000240649     0.00286137     
  2.6e+010        1.8642e-006     1.3558e-005     0.545496        -0.751875       0.146783        0.11727         0.117244        0.155569        0.637381        -0.722002       0.835424        -0.438782       0.0764968       0.16391         0.0316127       0.183084        0.914945        -0.302356       0.000422214     0.00492442      -8.51197e-005   -0.0019582      0.000443738     -0.00196376     0.000192715     0.00322875     
  2.7e+010        1.8642e-006     1.3558e-005     0.544755        -0.783638       0.15543         0.114434        0.134822        0.156761        0.622423        -0.744576       0.819645        -0.468665       0.0753488       0.168311        0.0372274       0.195443        0.925028        -0.297406       0.000403754     0.00529889      -2.70384e-005   -0.00199555     0.000468104     -0.0021017      9.09141e-005    0.00314527     
  2.8e+010        1.8642e-006     1.3558e-005     0.496096        -0.798943       0.164179        0.0974676       0.143572        0.142481        0.572492        -0.77907        0.809539        -0.471277       0.0839034       0.173063        0.0418595       0.200722        0.901843        -0.303573       0.000469186     0.00538824      -7.55381e-005   -0.00211241     0.000469944     -0.00220392     0.000285405     0.00329243     
  2.9e+010        1.8642e-006     1.3558e-005     0.478835        -0.807764       0.168335        0.0990679       0.148171        0.143875        0.557534        -0.779903       0.806398        -0.494472       0.0904081       0.176219        0.0488578       0.20467         0.90106         -0.323971       0.000356226     0.00563942      -7.58585e-005   -0.00216804     0.000468555     -0.00225665     0.000211571     0.00350826     
  3e+010          1.8642e-006     1.3558e-005     0.431299        -0.821948       0.174573        0.0962324       0.156781        0.139464        0.540775        -0.792591       0.789163        -0.492268       0.0962841       0.184459        0.0561882       0.212089        0.90663         -0.322436       0.000512661     0.00572695      -9.45981e-005   -0.00228973     0.000434536     -0.00237706     0.000138379     0.00348366     
  3.1e+010        1.8642e-006     1.3558e-005     0.423489        -0.832548       0.182146        0.0927208       0.16664         0.138385        0.500939        -0.821102       0.77246         -0.530919       0.111737        0.178155        0.0714458       0.209684        0.901706        -0.339113       0.000433109     0.00623791      -0.000203041    -0.00231693     0.000352475     -0.00242448     0.000126408     0.00369838     
  3.2e+010        1.8642e-006     1.3558e-005     0.385788        -0.838405       0.179906        0.0851842       0.170313        0.1278          0.447238        -0.825654       0.747747        -0.53004        0.0993081       0.177632        0.0638482       0.211873        0.878039        -0.346733       0.000679698     0.00636375      -6.61084e-005   -0.00230467     0.000469546     -0.00246266     0.000332162     0.00383963     
  3.3e+010        1.8642e-006     1.3558e-005     0.351526        -0.858758       0.194001        0.0894735       0.17969         0.134709        0.459396        -0.83027        0.744223        -0.53734        0.105445        0.190228        0.068027        0.220885        0.884209        -0.35806        0.000634573     0.00645715      -3.69627e-005   -0.00245163     0.000497985     -0.00255747     0.000196035     0.00393074     
  3.4e+010        1.8642e-006     1.3558e-005     0.313025        -0.859405       0.192923        0.0773733       0.187059        0.120874        0.40052         -0.852719       0.71659         -0.540878       0.109006        0.192093        0.0750112       0.22543         0.864394        -0.356495       0.000861186     0.00669015      -4.30411e-005   -0.00254877     0.000485633     -0.0026987      0.000382418     0.00400511     
  3.5e+010        1.8642e-006     1.3558e-005     0.289391        -0.863159       0.196452        0.0768965       0.183442        0.125181        0.373475        -0.857353       0.716205        -0.568345       0.117361        0.193445        0.0751091       0.225545        0.85056         -0.374297       0.000660287     0.00696336      -5.40022e-005   -0.00261222     0.000553954     -0.00268864     0.000439933     0.00424682     
  3.6e+010        1.8642e-006     1.3558e-005     0.250961        -0.859298       0.194892        0.0875443       0.192191        0.124379        0.351064        -0.861132       0.683664        -0.581677       0.111749        0.200854        0.0851403       0.232401        0.861552        -0.384786       0.00085311      0.00732692      9.08396e-005    -0.00267102     0.000545065     -0.00282579     0.000261259     0.00429886     
  3.7e+010        1.8642e-006     1.3558e-005     0.218334        -0.851054       0.209232        0.0862639       0.200127        0.133778        0.288422        -0.856721       0.693086        -0.582298       0.12589         0.208005        0.0851234       0.241878        0.827947        -0.373367       0.000716779     0.00727105      -1.49561e-005   -0.0028612      0.000601382     -0.00295706     0.000616815     0.00434631     
  3.8e+010        1.8642e-006     1.3558e-005     0.210182        -0.828074       0.221341        0.102897        0.211075        0.146467        0.299682        -0.831046       0.655977        -0.583563       0.123806        0.207366        0.0876754       0.238475        0.815856        -0.411008       0.00106649      0.00756529      8.4548e-005     -0.0029024      0.000651882     -0.00298438     0.000560375     0.00478275     
  3.9e+010        1.8642e-006     1.3558e-005     0.213735        -0.847691       0.265732        0.0950468       0.258068        0.141843        0.300289        -0.835742       0.643282        -0.596121       0.126174        0.219513        0.0918812       0.252698        0.814061        -0.389658       0.00104035      0.00778285      0.000135267     -0.00305828     0.00070038      -0.00317467     0.000635776     0.0045686      
  4e+010          1.8642e-006     1.3558e-005     0.195359        -0.870459       0.275156        0.0643653       0.273173        0.116938        0.283774        -0.866361       0.613509        -0.604103       0.120383        0.225938        0.0848795       0.259581        0.77756         -0.39369        0.00124087      0.008073        0.000292323     -0.00318183     0.000893206     -0.00328951     0.000971266     0.00475391     
  4.1e+010        1.8642e-006     1.3558e-005     0.132962        -0.874038       0.271441        0.0348838       0.273761        0.085125        0.238731        -0.878453       0.600522        -0.569805       0.121069        0.259817        0.0808082       0.295203        0.752741        -0.367031       0.00153254      0.0077709       0.000426656     -0.00363929     0.00110218      -0.00375405     0.00123743      0.00454313     
  4.2e+010        1.8642e-006     1.3558e-005     0.123526        -0.882567       0.272602        0.03589         0.279477        0.0783344       0.224629        -0.883889       0.604779        -0.562557       0.14964         0.295474        0.119766        0.325093        0.787681        -0.328165       0.00135527      0.00774366      0.000250813     -0.00413182     0.000760015     -0.00426277     0.000861731     0.00406079     
