! VERSION = 6.00
!Measured by: Marcus Mueller on Fri Nov 16 09:37:36 WEST 2018
!TECHNOLOGY: Teledyne
!WAFER: w096
!DIE Nr.: y
!TRANSISTOR Name: 0p25x10x1_full
!Emitter size: 0.25x10
!Configuration: CBE
!Temperature: 298
BEGIN_HEADER
 ICCAP_INPUTS
  vs         V  S GROUND GND 0 CON        0
  ve         V  E GROUND GND 0 CON        0
  vc         V  C GROUND SMU_C 0.0375 SYNC       1 -0.25 vb
  vb         V  B GROUND SMU_B 0.003 LIN        2    0.6        0.83       34   0.0069697 
  freq       F  LIN        1    1e+009     5e+010     50   1e+009    
 ICCAP_OUTPUTS
  ib         I  B GROUND SMU_B B
  ic         I  C GROUND SMU_C B
  S          S  B C GROUND NWA B
  S_deemb    S P1 P2 GROUND n/a B
  Y          Y P1 P2 GROUND n/a B
 ICCAP_VALUES
  MEAS_BY "Marcus Mueller"
  TECH "Teledyne"
  WAFER "w096"
  DIE "y"
  TRAN "0p25x10x1_full"
  WIDTH "0.25"
  LENGTH "10"
  CONFIG "CBE"
  TEMP "298"
END_HEADER

BEGIN_DB
 ICCAP_VAR vs         0              
 ICCAP_VAR ve         0              
 ICCAP_VAR vc         0.35           
 ICCAP_VAR vb         0.6            

 #freq            ib              ic              R:S(1,1)        I:S(1,1)        R:S(1,2)        I:S(1,2)        R:S(2,1)        I:S(2,1)        R:S(2,2)        I:S(2,2)        R:S_deemb(1,1)  I:S_deemb(1,1)  R:S_deemb(1,2)  I:S_deemb(1,2)  R:S_deemb(2,1)  I:S_deemb(2,1)  R:S_deemb(2,2)  I:S_deemb(2,2)  R:Y(1,1)        I:Y(1,1)        R:Y(1,2)        I:Y(1,2)        R:Y(2,1)        I:Y(2,1)        R:Y(2,2)        I:Y(2,2)       
  1e+009          0               0               0               0               0               0               0               0               0               0               -0.00159676     -0.000762181    -1.70517e-005   -4.51977e-006   -3.57022e-005   -0.000114459    -0.0129274      -8.62656e-006   0.0200639       3.05849e-005    6.91962e-007    1.83986e-007    1.44552e-006    4.64687e-006    0.0205239       3.54247e-007   
  2e+009          0               0               0               0               0               0               0               0               0               0               -0.00211064     -0.00103348     3.15383e-005    -0.000129452    6.35196e-005    -0.000133625    -0.00657984     -0.0127212      0.0200846       4.15138e-005    -1.34463e-006   5.20484e-006    -2.63718e-006   5.35536e-006    0.0202583       0.000515525    
  3e+009          0               0               0               0               0               0               0               0               0               0               -0.00249498     -0.00170338     3.03012e-005    -0.00024028     9.11903e-005    -0.000272223    0.00183358      -0.0065102      0.0200999       6.84749e-005    -1.2917e-006    9.60713e-006    -3.73925e-006   1.08656e-005    0.0199251       0.000259443    
  4e+009          0               0               0               0               0               0               0               0               0               0               -0.00289191     -0.00165174     0.000123267     -0.000347262    3.05502e-005    -0.000335758    -0.0049159      0.00614408      0.0201159       6.64512e-005    -4.90601e-006   1.40216e-005    -1.17042e-006   1.35409e-005    0.0201961       -0.00024819    
  5e+009          0               0               0               0               0               0               0               0               0               0               -0.00329328     -0.00192655     0.000104722     -0.000470292    2.85273e-005    -0.000562753    -0.00504805     -0.00957836     0.020132        7.75686e-005    -4.44282e-006   1.89186e-005    -1.41291e-006   2.26832e-005    0.0201992       0.000386993    
  6e+009          0               0               0               0               0               0               0               0               0               0               -0.0040544      -0.00305313     0.000128179     -0.000556402    0.000158713     -0.000516883    -0.000227633    -0.0074007      0.0201624       0.000123114     -5.3827e-006    2.22959e-005    -6.59259e-006   2.06957e-005    0.0200069       0.00029614     
  7e+009          0               0               0               0               0               0               0               0               0               0               -0.00416324     -0.00302477     0.000170896     -0.000618684    0.000170876     -0.000544455    -0.00665572     0.00712975      0.0201668       0.000121995     -6.80657e-006   2.5045e-005     -6.81819e-006   2.20435e-005    0.0202659       -0.000289017   
  8e+009          0               0               0               0               0               0               0               0               0               0               -0.00499235     -0.00399512     9.68185e-005    -0.000785598    0.000121589     -0.000740652    -0.00709975     -0.0111352      0.0202          0.000161403     -4.40362e-006   3.17418e-005    -5.37863e-006   2.9907e-005     0.0202809       0.000451735    
  9e+009          0               0               0               0               0               0               0               0               0               0               -0.00640678     -0.00315273     0.000168806     -0.000704398    0.000114467     -0.000734557    -0.00352233     -0.00879787     0.0202575       0.000127731     -7.16053e-006   2.83727e-005    -4.98008e-006   2.96173e-005    0.0201382       0.000354371    
  1e+010          0               0               0               0               0               0               0               0               0               0               -0.00693727     -0.00650566     0.000244258     -0.000787229    0.000173283     -0.000848381    -0.00837883     0.00487872      0.0202777       0.000263849     -9.97348e-006   3.19597e-005    -7.09465e-006   3.44483e-005    0.020337        -0.00019847    
  1.1e+010        0               0               0               0               0               0               0               0               0               0               -0.00720995     -0.0043122      0.000367769     -0.000741863    0.000445917     -0.000824206    -0.00899649     -0.0118326      0.0202897       0.000174973     -1.544e-005     2.99115e-005    -1.8671e-005    3.32068e-005    0.0203574       0.000481842    
  1.2e+010        0               0               0               0               0               0               0               0               0               0               -0.00981862     -0.00568754     0.000290204     -0.000847905    0.000268228     -0.000721379    -0.00754522     -0.00894362     0.0203953       0.00023201      -1.23196e-005   3.43329e-005    -1.13493e-005   2.91969e-005    0.0203008       0.000363157    
  1.3e+010        0               0               0               0               0               0               0               0               0               0               -0.0107098      -0.00617148     0.000323068     -0.000420854    0.000314567     -0.000355168    -0.0115957      0.0064989       0.0204315       0.000252213     -1.32095e-005   1.72198e-005    -1.28627e-005   1.45327e-005    0.0204675       -0.00026609    
  1.4e+010        0               0               0               0               0               0               0               0               0               0               -0.00910229     -0.0042128      0.00142958      0.000219607     0.00127818      -9.95356e-005   -0.0102765      -0.00993039     0.0203668       0.000171626     -5.81705e-005   -9.78844e-006   -5.21824e-005   3.31443e-006    0.0204113       0.000405474    
  1.5e+010        0               0               0               0               0               0               0               0               0               0               -0.0120256      -0.000561689    0.00339532      -0.000891915    0.00354186      -0.00100969     -0.00783861     -0.00872695     0.0204873       2.27504e-005    -0.000138883    3.50971e-005    -0.000144907    3.98467e-005    0.0203134       0.000354326    
  1.6e+010        0               0               0               0               0               0               0               0               0               0               -0.0126864      -0.0107023      0.00304089      -0.00295304     0.00312289      -0.00302343     -0.0148996      0.00722949      0.0205093       0.000438346     -0.000125473    0.000121003     -0.000128855    0.000123886     0.0206028       -0.000298746   
  1.7e+010        0               0               0               0               0               0               0               0               0               0               -0.0134741      -0.00680877     0.00190648      -0.00350285     0.00196264      -0.00368166     -0.0130101      -0.013262       0.020544        0.000279239     -8.12177e-005   0.000142261     -8.36735e-005   0.000149557     0.0205196       0.000543869    
  1.8e+010        0               0               0               0               0               0               0               0               0               0               -0.015364       -0.00707        0.00135959      -0.00358841     0.00132568      -0.00370547     -0.0130186      -0.0048971      0.0206216       0.000291261     -5.77457e-005   0.000147002     -5.64083e-005   0.000151836     0.0205261       0.000200664    
  1.9e+010        0               0               0               0               0               0               0               0               0               0               -0.0205988      -0.00400245     0.00101326      -0.00359832     0.00117768      -0.00363881     -0.0211182      0.00499898      0.0208401       0.000166561     -4.21197e-005   0.000150169     -4.89778e-005   0.000151865     0.0208614       -0.000209009   
  2e+010          0               0               0               0               0               0               0               0               0               0               -0.0180266      -0.0044368      0.000844136     -0.00388946     0.00110897      -0.00398845     -0.0187061      -0.00685526     0.0207329       0.000183709     -3.68926e-005   0.000161033     -4.79322e-005   0.000165015     0.0207599       0.000284414    
  2.1e+010        0               0               0               0               0               0               0               0               0               0               -0.0233565      7.48316e-006    0.000557767     -0.00366691     0.000756435     -0.00338116     -0.0197397      -0.0001905      0.0209561       -5.13245e-007   -2.33318e-005   0.000153202     -3.16302e-005   0.000141262     0.020805        7.73117e-006   
  2.2e+010        0               0               0               0               0               0               0               0               0               0               -0.0250296      -0.00405373     0.000485448     -0.00400722     0.00019147      -0.0038125      -0.0265602      0.0108107       0.0210255       0.000170467     -1.92839e-005   0.000169013     -6.9522e-006    0.000160721     0.0210857       -0.000456391   
  2.3e+010        0               0               0               0               0               0               0               0               0               0               -0.0237691      -0.00172283     0.000415757     -0.00387569     0.000529871     -0.00391097     -0.0239575      -0.00274023     0.0209731       7.21475e-005    -1.8196e-005    0.000162615     -2.29931e-005   0.000164074     0.0209809       0.000114892    
  2.4e+010        0               0               0               0               0               0               0               0               0               0               -0.027152       -0.00170954     1.43008e-005    -0.00401223     4.13161e-005    -0.00364245     -0.0224662      -0.0109425      0.0211156       7.22328e-005    -2.78667e-006   0.000168724     -3.72139e-006   0.000153159     0.0209135       0.000457968    
  2.5e+010        0               0               0               0               0               0               0               0               0               0               -0.0303977      -0.00923316     -0.000199143    -0.00375485     -0.000208402    -0.00394927     -0.032205       0.0133669       0.0212496       0.000392877     9.17343e-006    0.000159995     9.60359e-006    0.000168279     0.0213225       -0.000570664   
  2.6e+010        0               0               0               0               0               0               0               0               0               0               -0.0288947      0.00471205      -0.000202422    -0.00321637     -0.000270864    -0.00312118     -0.0299238      -0.00725072     0.0211888       -0.000199794    8.23623e-006    0.000136585     1.11528e-005    0.000132551     0.0212311       0.000308242    
  2.7e+010        0               0               0               0               0               0               0               0               0               0               -0.0311226      -0.0117051      -0.000102927    -0.00329562     6.46061e-005    -0.00321308     -0.0257907      -0.0104567      0.0212784       0.000498684     1.17466e-006    0.000139705     -5.84242e-006   0.000136046     0.0210537       0.000440646    
  2.8e+010        0               0               0               0               0               0               0               0               0               0               -0.0379617      -0.0017999      -0.000393788    -0.00367033     -0.000307556    -0.00387078     -0.0367938      0.00860994      0.0215776       7.7912e-005     1.81164e-005    0.000158303     1.44554e-005    0.000166981     0.021524        -0.000371053   
  2.9e+010        0               0               0               0               0               0               0               0               0               0               -0.034606       -0.00831898     -0.000162451    -0.00304206     -0.000172806    -0.00326428     -0.033353       -0.000629576    0.0214303       0.000357056     5.75399e-006    0.000130446     6.10955e-006    0.000139974     0.0213797       2.69933e-005   
  3e+010          0               0               0               0               0               0               0               0               0               0               -0.0401887      0.00605759      -0.000259154    -0.00243687     -0.000173607    -0.00264618     -0.0328295      -0.00224018     0.0216729       -0.000262956    1.15857e-005    0.000104955     7.93572e-006    0.000113989     0.0213572       9.58431e-005   
  3.1e+010        0               0               0               0               0               0               0               0               0               0               -0.0388008      -0.00595853     0.00337783      -0.00257347     0.00360765      -0.00270861     -0.0384801      0.00381918      0.0216133       0.000257134     -0.000146435    0.000111055     -0.000156394    0.000116882     0.0216004       -0.000166067   
  3.2e+010        0               0               0               0               0               0               0               0               0               0               -0.0418917      -0.00395982     -0.000750734    -0.00490489     -0.00105314     -0.00485782     -0.0387319      0.0119827       0.0217472       0.000172947     3.43731e-005    0.000212722     4.74878e-005    0.000210569     0.0216042       -0.00051821    
  3.3e+010        0               0               0               0               0               0               0               0               0               0               -0.0437453      -0.00516315     -0.00106305     -0.00363572     -0.0011906      -0.00347583     -0.0372027      -0.00755281     0.0218281       0.000226202     4.40857e-005    0.000158547     4.97185e-005    0.000151675     0.0215425       0.000326242    
  3.4e+010        0               0               0               0               0               0               0               0               0               0               -0.0540909      0.00472025      -0.00125922     -0.00322889     -0.00146163     -0.00335158     -0.0483611      0.0089657       0.0222859       -0.000210588    5.80116e-005    0.00014265      6.70831e-005    0.000147971     0.0220286       -0.000395542   
  3.5e+010        0               0               0               0               0               0               0               0               0               0               -0.0451596      -0.00801054     -0.00111395     -0.00268627     -0.00147484     -0.00264336     -0.0501391      0.00955754      0.0218886       0.00035174      4.93215e-005    0.00011838      6.5233e-005     0.000116461     0.0221069       -0.000423361   
  3.6e+010        0               0               0               0               0               0               0               0               0               0               -0.0563788      -0.00855828     -0.00119561     -0.00245007     -0.00169055     -0.00295201     -0.042355       -0.00429673     0.0223862       0.000384783     5.14445e-005    0.000109153     7.30484e-005    0.000131666     0.021768        0.000187755    
  3.7e+010        0               0               0               0               0               0               0               0               0               0               -0.053313       -0.0107417      -0.00115379     -0.00165146     -0.00109937     -0.0016398      -0.0566259      0.0211844       0.0222471       0.000479536     5.24782e-005    7.33653e-005    5.00358e-005    7.28703e-005    0.0223796       -0.000951496   
  3.8e+010        0               0               0               0               0               0               0               0               0               0               -0.0565309      0.00599411      -0.00195365     -0.000695503    -0.00173023     -0.000436624    -0.0521028      0.00406612      0.0223952       -0.000269252    8.77051e-005    3.01755e-005    7.75898e-005    1.87039e-005    0.022198        -0.000180918   
  3.9e+010        0               0               0               0               0               0               0               0               0               0               -0.0557378      -0.00360109     -0.00088352     0.000313322     -0.0013589      0.000594106     -0.0480975      0.00578559      0.0223605       0.000161504     3.92853e-005    -1.4032e-005    6.04114e-005    -2.65749e-005   0.0220196       -0.000255437   
  4e+010          0               0               0               0               0               0               0               0               0               0               -0.0641979      -0.00377517     -0.00117886     0.000875        -0.00144802     0.00151863      -0.0635972      0.0107364       0.0227434       0.000172284     5.35092e-005    -4.03372e-005   6.55758e-005    -6.98053e-005   0.0227111       -0.000489856   
  4.1e+010        0               0               0               0               0               0               0               0               0               0               -0.062596       0.0136262       -0.00100349     0.00319404      -0.000280306    0.0027472       -0.0611756      0.0221019       0.0226616       -0.000620297    4.00349e-005    -0.000146747    7.97471e-006    -0.00012521     0.0225825       -0.00100264    
  4.2e+010        0               0               0               0               0               0               0               0               0               0               -0.0618866      0.00453527      0.000194263     0.00484117      8.49102e-005    0.00545726      -0.0504401      0.0131998       0.0226365       -0.000206031    -1.27917e-005   -0.000217155    -8.40106e-006   -0.000244903    0.0221154       -0.000585352   
