! VERSION = 6.00
!Measured by: Marcus Mueller on Fri Nov 16 09:38:43 WEST 2018
!TECHNOLOGY: Teledyne
!WAFER: w096
!DIE Nr.: y
!TRANSISTOR Name: 0p25x10x1_full
!Emitter size: 0.25x10
!Configuration: CBE
!Temperature: 298
BEGIN_HEADER
 ICCAP_INPUTS
  vs         V  S GROUND GND 0 CON        0
  ve         V  E GROUND GND 0 CON        0
  vc         V  C GROUND SMU_C 0.0375 SYNC       1 0 vb
  vb         V  B GROUND SMU_B 0.003 LIN        2    0.6        0.83       24   0.01      
  freq       F  LIN        1    1e+009     5e+010     50   1e+009    
 ICCAP_OUTPUTS
  ib         I  B GROUND SMU_B B
  ic         I  C GROUND SMU_C B
  S          S  B C GROUND NWA B
  S_deemb    S P1 P2 GROUND n/a B
  Y          Y P1 P2 GROUND n/a B
 ICCAP_VALUES
  MEAS_BY "Marcus Mueller"
  TECH "Teledyne"
  WAFER "w096"
  DIE "y"
  TRAN "0p25x10x1_full"
  WIDTH "0.25"
  LENGTH "10"
  CONFIG "CBE"
  TEMP "298"
END_HEADER

BEGIN_DB
 ICCAP_VAR vs         0              
 ICCAP_VAR ve         0              
 ICCAP_VAR vc         0.6            
 ICCAP_VAR vb         0.6            

 #freq            ib              ic              R:S(1,1)        I:S(1,1)        R:S(1,2)        I:S(1,2)        R:S(2,1)        I:S(2,1)        R:S(2,2)        I:S(2,2)        R:S_deemb(1,1)  I:S_deemb(1,1)  R:S_deemb(1,2)  I:S_deemb(1,2)  R:S_deemb(2,1)  I:S_deemb(2,1)  R:S_deemb(2,2)  I:S_deemb(2,2)  R:Y(1,1)        I:Y(1,1)        R:Y(1,2)        I:Y(1,2)        R:Y(2,1)        I:Y(2,1)        R:Y(2,2)        I:Y(2,2)       
  1e+009          2.034e-006      1.347e-005      0.99209         -0.042347       0.00281091      0.0128551       -0.0526662      0.0227731       0.893307        -0.345442       0.99248         -0.0263669      0.00262043      0.0126636       -0.052175       0.0213363       0.856719        -0.326412       7.04818e-005    0.000262016     -2.33656e-006   -0.00013767     0.000588081     -0.000119891    0.000896586     0.00366978     
  2e+009          2.034e-006      1.347e-005      0.989378        -0.0843342      0.00440622      0.0256621       -0.0465337      0.0324078       1.01659         -0.227922       0.991396        -0.0518565      0.00393041      0.0251676       -0.0465007      0.0306802       1.00157         -0.221981       6.89323e-005    0.000516746     -4.75408e-006   -0.000253887    0.000500791     -0.000240074    -0.000261771    0.00218322     
  3e+009          2.034e-006      1.347e-005      0.984972        -0.125242       0.00480145      0.0386179       -0.0472462      0.0457851       0.992926        -0.109788       0.9887          -0.077454       0.00307607      0.0383126       -0.0492742      0.0430709       1.0002          -0.0658457      7.51172e-005    0.00077238      -3.37754e-006   -0.000385825    0.000524211     -0.000395999    -3.17126e-005   0.000647915    
  4e+009          2.034e-006      1.347e-005      0.977137        -0.167583       0.0117415       0.0505295       -0.040342       0.0629865       0.96425         -0.242913       0.985018        -0.103427       0.00791646      0.0505218       -0.0449613      0.0590899       0.97086         -0.161811       8.12966e-005    0.00103488      -1.14509e-005   -0.000519869    0.000533043     -0.000534701    0.000145012     0.00164242     
  5e+009          2.034e-006      1.347e-005      0.968956        -0.2084         0.0154106       0.0622392       -0.0342923      0.0736513       0.976894        -0.242335       0.981356        -0.128591       0.0106265       0.0620772       -0.0396337      0.0695494       0.98131         -0.173251       8.18135e-005    0.00129099      -1.15458e-005   -0.000637125    0.000502569     -0.000635156    1.41152e-005    0.00173775     
  6e+009          2.034e-006      1.347e-005      0.958795        -0.247474       0.0191536       0.0750783       -0.0309898      0.0892591       0.971403        -0.224084       0.976229        -0.153512       0.0119987       0.0755952       -0.0391815      0.0849161       0.988329        -0.132916       8.70593e-005    0.00154547      -1.07356e-005   -0.000773743    0.000514843     -0.000792993    -4.2264e-006    0.0013219      
  7e+009          2.034e-006      1.347e-005      0.945187        -0.28765        0.0306198       0.0847502       -0.0194337      0.103132        0.937307        -0.335059       0.969964        -0.178094       0.0194201       0.0867815       -0.0324129      0.0988433       0.965243        -0.200837       9.59428e-005    0.00180315      -2.61785e-005   -0.000907894    0.000516988     -0.000928168    9.91068e-005    0.00204036     
  8e+009          2.034e-006      1.347e-005      0.931343        -0.32566        0.0354059       0.0950422       -0.012678       0.112143        0.946125        -0.328          0.963154        -0.202625       0.0228055       0.0969529       -0.0266377      0.107832        0.967866        -0.210474       0.000106316     0.0020627       -2.26202e-005   -0.00101692     0.000494391     -0.00102095     4.26256e-005    0.00213114     
  9e+009          2.034e-006      1.347e-005      0.914415        -0.367061       0.0423986       0.106788        -0.00484046     0.127356        0.938039        -0.332039       0.954791        -0.227402       0.026184        0.110526        -0.0235605      0.123863        0.972227        -0.196879       0.000117984     0.00232767      -2.08075e-005   -0.00116042     0.000504839     -0.00118528     1.03614e-005    0.001985       
  1e+010          2.034e-006      1.347e-005      0.897958        -0.399014       0.0551276       0.113149        0.00786015      0.137631        0.898384        -0.411776       0.946124        -0.249846       0.0346554       0.119959        -0.0162602      0.1359          0.950003        -0.243661       0.000132564     0.00257654      -3.82186e-005   -0.00128907     0.000512083     -0.00131762     0.000109664     0.0025047      
  1.1e+010        2.034e-006      1.347e-005      0.873245        -0.440026       0.0621897       0.12235         0.0165095       0.144407        0.903171        -0.41296        0.935879        -0.275711       0.0392939       0.130256        -0.00939552     0.143793        0.950743        -0.254761       0.000149706     0.00286521      -3.07865e-005   -0.00140718     0.000492027     -0.00140722     5.95951e-005    0.00261521     
  1.2e+010        2.034e-006      1.347e-005      0.854233        -0.474466       0.0702274       0.130996        0.0268143       0.15797         0.886476        -0.438299       0.923674        -0.298653       0.0433185       0.141642        -0.00445439     0.159686        0.94833         -0.260787       0.000179753     0.00313062      -1.51205e-005   -0.00153868     0.00051394      -0.00157799     4.54278e-005    0.00268083     
  1.3e+010        2.034e-006      1.347e-005      0.829756        -0.495725       0.0847051       0.142403        0.0423203       0.172838        0.836456        -0.50533        0.910565        -0.308745       0.0514434       0.159336        0.0030925       0.17978         0.922645        -0.293804       0.000241074     0.00327384      -5.34629e-007   -0.00176512     0.000550737     -0.00181378     0.000168217     0.00308484     
  1.4e+010        2.034e-006      1.347e-005      0.803043        -0.534121       0.0987265       0.148324        0.0557105       0.175272        0.84455         -0.498955       0.906138        -0.335004       0.0669622       0.169017        0.0176711       0.185436        0.928113        -0.299973       0.000172464     0.00357183      -9.0865e-005    -0.00190649     0.000454566     -0.0019021      7.32071e-005    0.00314918     
  1.5e+010        2.034e-006      1.347e-005      0.770991        -0.576591       0.11187         0.152324        0.074869        0.183639        0.820862        -0.531068       0.892968        -0.36428        0.0786918       0.173357        0.0346834       0.194907        0.930643        -0.318239       0.000171224     0.00393271      -0.000140254    -0.00199463     0.000371866     -0.00204573     -3.11758e-005   0.00334157     
  1.6e+010        2.034e-006      1.347e-005      0.761059        -0.585393       0.127854        0.15199         0.0900276       0.186453        0.770586        -0.600149       0.883579        -0.378711       0.0860971       0.174893        0.0392952       0.198023        0.904504        -0.360308       0.000193741     0.00411837      -0.000143516    -0.00206774     0.000410184     -0.00210704     6.18664e-005    0.00385304     
  1.7e+010        2.034e-006      1.347e-005      0.724805        -0.621699       0.138687        0.15782         0.10007         0.190279        0.776353        -0.583264       0.86519         -0.40474        0.0916448       0.182028        0.0453422       0.202865        0.896792        -0.365824       0.000243456     0.00445987      -0.000129047    -0.00218305     0.000415741     -0.0021915      9.75524e-005    0.0039421      
  1.8e+010        2.034e-006      1.347e-005      0.696093        -0.651118       0.155242        0.160447        0.120462        0.195987        0.735099        -0.623038       0.85025         -0.425262       0.100802        0.194867        0.05652         0.219286        0.885394        -0.383112       0.000251805     0.00474025      -0.000111401    -0.00236922     0.000433813     -0.0024094      9.66508e-005    0.00416762     
  1.9e+010        2.034e-006      1.347e-005      0.665982        -0.679748       0.171099        0.15334         0.137647        0.192375        0.695947        -0.665935       0.835119        -0.441816       0.112062        0.197639        0.0674779       0.224252        0.863595        -0.408075       0.000295954     0.00499564      -0.000146507    -0.00248492     0.000420492     -0.00253108     0.000179052     0.00452625     
  2e+010          2.034e-006      1.347e-005      0.625056        -0.700235       0.180598        0.155422        0.149237        0.193798        0.688973        -0.662701       0.815528        -0.463693       0.120282        0.203871        0.0779425       0.230019        0.855392        -0.4168         0.000346635     0.00532739      -0.000146457    -0.00261396     0.000402338     -0.00265586     0.000193101     0.00466419     
  2.1e+010        2.034e-006      1.347e-005      0.596941        -0.725561       0.193792        0.152703        0.166764        0.193376        0.655309        -0.687563       0.803611        -0.476259       0.128589        0.211555        0.0884232       0.241311        0.84773         -0.427624       0.000356843     0.00552989      -0.000147187    -0.00274965     0.000402958     -0.00282995     0.000180348     0.00482118     
  2.2e+010        2.034e-006      1.347e-005      0.569459        -0.741291       0.209887        0.142978        0.18109         0.18538         0.602931        -0.730089       0.784675        -0.494956       0.14336         0.212522        0.0996458       0.242935        0.823577        -0.45121        0.000408923     0.00584976      -0.000207687    -0.00288974     0.000391917     -0.00294153     0.000274151     0.00520203     
  2.3e+010        2.034e-006      1.347e-005      0.532353        -0.752311       0.216793        0.143052        0.188003        0.184138        0.601332        -0.723327       0.767436        -0.506869       0.149214        0.216146        0.106101        0.244826        0.816581        -0.456356       0.000485508     0.00608313      -0.000207898    -0.00298937     0.000382075     -0.0030202      0.000296804     0.00530152     
  2.4e+010        2.034e-006      1.347e-005      0.501234        -0.771461       0.228803        0.149342        0.206839        0.18958         0.585182        -0.738487       0.751763        -0.522378       0.15548         0.228171        0.118765        0.257794        0.812381        -0.473382       0.000486919     0.00634308      -0.000134012    -0.00315837     0.000402021     -0.00322473     0.000193289     0.00550038     
  2.5e+010        2.034e-006      1.347e-005      0.475919        -0.784163       0.240995        0.130827        0.221872        0.177295        0.513983        -0.781802       0.731265        -0.539435       0.168527        0.223849        0.130875        0.259637        0.783858        -0.494845       0.000548777     0.00667909      -0.000197628    -0.0032644      0.000399404     -0.00337006     0.000324272     0.00590625     
  2.6e+010        2.034e-006      1.347e-005      0.422434        -0.780758       0.254386        0.141768        0.226688        0.184258        0.520759        -0.76054        0.706947        -0.534696       0.177119        0.242739        0.132495        0.270768        0.772967        -0.485852       0.000749899     0.0068027       -0.000164465    -0.00356556     0.000461314     -0.00355088     0.000415798     0.00588618     
  2.7e+010        2.034e-006      1.347e-005      0.421632        -0.804809       0.272305        0.140561        0.257886        0.181443        0.490222        -0.787036       0.708593        -0.557326       0.191677        0.246742        0.160561        0.278508        0.768682        -0.516499       0.000522186     0.00706647      -0.000164509    -0.00367682     0.000350841     -0.0037706      0.000222123     0.00626504     
  2.8e+010        2.034e-006      1.347e-005      0.36737         -0.816169       0.280346        0.110891        0.267049        0.157239        0.441805        -0.812258       0.676283        -0.571974       0.208317        0.235982        0.173556        0.272395        0.745295        -0.528978       0.000715353     0.00751095      -0.000308063    -0.00379081     0.000291784     -0.0038916      0.000358723     0.00659554     
  2.9e+010        2.034e-006      1.347e-005      0.344874        -0.818439       0.287537        0.111736        0.274983        0.157283        0.425364        -0.806153       0.665214        -0.582625       0.214428        0.238642        0.181444        0.275301        0.734517        -0.533531       0.000708617     0.00771956      -0.000299699    -0.00389569     0.000290852     -0.00400491     0.000403715     0.00673119     
  3e+010          2.034e-006      1.347e-005      0.296242        -0.829385       0.297788        0.103304        0.285811        0.147225        0.401608        -0.819053       0.643545        -0.59087        0.228103        0.244589        0.195039        0.279713        0.728042        -0.546027       0.000795129     0.00801623      -0.000314542    -0.0041009      0.000272735     -0.00418464     0.000327392     0.00693683     
  3.1e+010        2.034e-006      1.347e-005      0.289263        -0.832419       0.308311        0.0938786       0.29945         0.139986        0.356661        -0.840165       0.64524         -0.603209       0.246305        0.237501        0.21485         0.275434        0.714033        -0.573357       0.000663682     0.00819532      -0.000433574    -0.00418591     0.000162922     -0.00429328     0.000253397     0.00736928     
  3.2e+010        2.034e-006      1.347e-005      0.249444        -0.833677       0.302282        0.0822536       0.30073         0.124007        0.305843        -0.836384       0.612262        -0.612837       0.235819        0.231794        0.213046        0.270479        0.676367        -0.579363       0.000896493     0.00854913      -0.000306611    -0.00419799     0.000236237     -0.00437646     0.000564919     0.00769035     
  3.3e+010        2.034e-006      1.347e-005      0.201978        -0.846073       0.327598        0.0808693       0.319741        0.125645        0.308648        -0.839332       0.584612        -0.636901       0.256262        0.242919        0.226014        0.280623        0.675775        -0.584456       0.000839726     0.00907243      -0.000297992    -0.00451221     0.000314235     -0.00460381     0.000438381     0.00778671     
  3.4e+010        2.034e-006      1.347e-005      0.177789        -0.842548       0.320813        0.0610498       0.322736        0.0989286       0.245577        -0.854571       0.572455        -0.624173       0.258558        0.236521        0.238265        0.271862        0.640628        -0.603758       0.00107381      0.00911565      -0.000317327    -0.00459148     0.000195779     -0.00474386     0.000610234     0.00830404     
  3.5e+010        2.034e-006      1.347e-005      0.142968        -0.838862       0.326271        0.0567          0.322831        0.106645        0.228062        -0.850295       0.544378        -0.645466       0.264656        0.234621        0.23357         0.278794        0.634792        -0.5972         0.00109513      0.00958543      -0.000323407    -0.00469744     0.000383967     -0.00482676     0.000687068     0.00828342     
  3.6e+010        2.034e-006      1.347e-005      0.115122        -0.827952       0.333741        0.066048        0.336698        0.0964879       0.184582        -0.852739       0.526104        -0.637298       0.262019        0.249449        0.24725         0.278424        0.602782        -0.629084       0.00127558      0.00968814      -4.2461e-005    -0.00491168     0.000379631     -0.00504136     0.000631338     0.00886276     
  3.7e+010        2.034e-006      1.347e-005      0.0548294       -0.80983        0.343657        0.0471876       0.345911        0.0949648       0.132592        -0.836549       0.474662        -0.649989       0.282635        0.249834        0.255943        0.293812        0.567752        -0.610283       0.00148554      0.0104249       -0.000128269    -0.00535323     0.000587102     -0.00549997     0.00100015      0.00907276     
  3.8e+010        2.034e-006      1.347e-005      0.0709764       -0.789019       0.353253        0.0650621       0.348358        0.10765         0.1486          -0.805412       0.487208        -0.609284       0.281095        0.276005        0.251139        0.310471        0.561145        -0.580884       0.00169433      0.00985343      -6.75288e-005   -0.00563479     0.000583956     -0.00568226     0.00123079      0.00881962     
  3.9e+010        2.034e-006      1.347e-005      0.0614202       -0.79854        0.404573        0.0489268       0.404146        0.0915646       0.138313        -0.806518       0.493025        -0.617023       0.338743        0.292454        0.312129        0.330918        0.572934        -0.580156       0.00126681      0.0101843       -0.000368852    -0.00628343     0.000280016     -0.00639184     0.00085571      0.00901682     
  4e+010          2.034e-006      1.347e-005      0.0510602       -0.814789       0.408816        0.0113044       0.415654        0.0588255       0.128875        -0.82959        0.49896         -0.628358       0.361498        0.273312        0.337507        0.320487        0.581609        -0.587529       0.00112777      0.0104208       -0.000691753    -0.0062898      1.71097e-005    -0.00649858     0.00074978      0.00919042     
  4.1e+010        2.034e-006      1.347e-005      -0.0220531      -0.81363        0.398867        -0.0253612      0.405695        0.025603        0.0873588       -0.838393       0.466363        -0.656814       0.390158        0.244315        0.362858        0.294819        0.578329        -0.604865       0.00117569      0.0112864       -0.00101331     -0.00645614     -0.000217859    -0.00663367     0.000690209     0.00960268     
  4.2e+010        2.034e-006      1.347e-005      -0.0134459      -0.816961       0.40698         -0.0249484      0.41586         0.0100861       0.0577989       -0.839995       0.482792        -0.657497       0.399149        0.243966        0.385111        0.280927        0.572299        -0.635649       0.00103191      0.0111986       -0.00097378     -0.00650001     -0.000449046    -0.00668229     0.000459636     0.0100375      
