! VERSION = 6.00
!Measured by: Marcus Mueller on Fri Nov 16 09:36:29 WEST 2018
!TECHNOLOGY: Teledyne
!WAFER: w096
!DIE Nr.: y
!TRANSISTOR Name: 0p25x10x1_full
!Emitter size: 0.25x10
!Configuration: CBE
!Temperature: 298
BEGIN_HEADER
 ICCAP_INPUTS
  vs         V  S GROUND GND 0 CON        0
  ve         V  E GROUND GND 0 CON        0
  vc         V  C GROUND SMU_C 0.0375 SYNC       1 -0.5 vb
  vb         V  B GROUND SMU_B 0.003 LIN        2    0.6        0.83       24   0.01      
  freq       F  LIN        1    1e+009     5e+010     50   1e+009    
 ICCAP_OUTPUTS
  ib         I  B GROUND SMU_B B
  ic         I  C GROUND SMU_C B
  S          S  B C GROUND NWA B
  S_deemb    S P1 P2 GROUND n/a B
  Y          Y P1 P2 GROUND n/a B
 ICCAP_VALUES
  MEAS_BY "Marcus Mueller"
  TECH "Teledyne"
  WAFER "w096"
  DIE "y"
  TRAN "0p25x10x1_full"
  WIDTH "0.25"
  LENGTH "10"
  CONFIG "CBE"
  TEMP "298"
END_HEADER

BEGIN_DB
 ICCAP_VAR vs         0              
 ICCAP_VAR ve         0              
 ICCAP_VAR vc         0.1            
 ICCAP_VAR vb         0.6            

 #freq            ib              ic              R:S(1,1)        I:S(1,1)        R:S(1,2)        I:S(1,2)        R:S(2,1)        I:S(2,1)        R:S(2,2)        I:S(2,2)        R:S_deemb(1,1)  I:S_deemb(1,1)  R:S_deemb(1,2)  I:S_deemb(1,2)  R:S_deemb(2,1)  I:S_deemb(2,1)  R:S_deemb(2,2)  I:S_deemb(2,2)  R:Y(1,1)        I:Y(1,1)        R:Y(1,2)        I:Y(1,2)        R:Y(2,1)        I:Y(2,1)        R:Y(2,2)        I:Y(2,2)       
  1e+009          5.9494e-005     -4.4186e-005    0.892646        -0.058696       0.0991513       0.0169131       0.0576227       0.0276006       0.813566        -0.317166       0.893234        -0.0443975      0.0969907       0.0180672       0.0558272       0.0277457       0.779794        -0.300362       0.00114106      0.000524048     -0.00107512     -0.000424606    -0.000580053    -0.000443902    0.00187357      0.00372151     
  2e+009          5.9494e-005     -4.4186e-005    0.884191        -0.115514       0.107713        0.0500655       0.0609084       0.0573444       0.909352        -0.231838       0.887407        -0.0866678      0.105668        0.0514665       0.0592552       0.0575386       0.896564        -0.226518       0.00115609      0.00102759      -0.00106031     -0.000757998    -0.000541594    -0.000738632    0.000797555     0.00253983     
  3e+009          5.9494e-005     -4.4186e-005    0.87076         -0.169419       0.119461        0.0832487       0.0721893       0.0918704       0.872985        -0.15631        0.877018        -0.127153       0.115505        0.0883814       0.0678757       0.0947686       0.882228        -0.117892       0.0011895       0.00153576      -0.00115545     -0.00116158     -0.000614097    -0.00116072     0.00114537      0.00142449     
  4e+009          5.9494e-005     -4.4186e-005    0.853008        -0.221736       0.134577        0.0997037       0.0919179       0.115081        0.834515        -0.283206       0.86459         -0.16581        0.126486        0.108629        0.0827494       0.120832        0.845646        -0.2125         0.00122476      0.00203013      -0.00115987     -0.00152189     -0.000639752    -0.00155424     0.00132569      0.00259952     
  5e+009          5.9494e-005     -4.4186e-005    0.831639        -0.272692       0.151055        0.122059        0.104348        0.136276        0.836736        -0.295093       0.85017         -0.204215       0.140249        0.13199         0.0927354       0.142408        0.84703         -0.235336       0.00125669      0.00253167      -0.0011957      -0.0018636      -0.000636707    -0.00184715     0.00120483      0.00288753     
  6e+009          5.9494e-005     -4.4186e-005    0.806508        -0.316969       0.17005         0.146032        0.127502        0.163834        0.81432         -0.299712       0.831966        -0.237577       0.15502         0.160785        0.11106         0.174358        0.839293        -0.223076       0.00130304      0.00301979      -0.00125628     -0.00226912     -0.000722381    -0.0022894      0.00126438      0.00283513     
  7e+009          5.9494e-005     -4.4186e-005    0.778448        -0.361675       0.19441         0.152695        0.154893        0.176292        0.766138        -0.397255       0.81243         -0.271167       0.17333         0.175213        0.131253        0.193787        0.804686        -0.286349       0.00135657      0.00352314      -0.00129386     -0.00261714     -0.000751478    -0.00266874     0.00138691      0.00372274     
  8e+009          5.9494e-005     -4.4186e-005    0.747935        -0.402195       0.214975        0.16795         0.172388        0.191149        0.761275        -0.398155       0.792065        -0.302917       0.190092        0.192037        0.145262        0.209474        0.79558         -0.302232       0.00140726      0.00401374      -0.00134214     -0.00294033     -0.000766851    -0.00295118     0.00137063      0.00399155     
  9e+009          5.9494e-005     -4.4186e-005    0.712916        -0.439602       0.239149        0.183359        0.203217        0.207809        0.733347        -0.416182       0.767142        -0.329503       0.208894        0.215144        0.169769        0.233896        0.782375        -0.309283       0.00148235      0.00451262      -0.00138946     -0.00336304     -0.000864211    -0.00339885     0.00140137      0.00421628     
  1e+010          5.9494e-005     -4.4186e-005    0.682686        -0.469437       0.263922        0.181491        0.23104         0.210814        0.681195        -0.478136       0.744913        -0.354572       0.228929        0.223448        0.191373        0.246672        0.748003        -0.348615       0.00154634      0.00498823      -0.00144704     -0.00369616     -0.000903733    -0.00376689     0.00154184      0.00490508     
  1.1e+010        5.9494e-005     -4.4186e-005    0.640161        -0.504423       0.289145        0.188324        0.252552        0.217965        0.67059         -0.481873       0.718853        -0.382397       0.249668        0.235649        0.208525        0.258103        0.735743        -0.362119       0.00161781      0.0055277       -0.00151493     -0.00404604     -0.000925653    -0.00407173     0.00153936      0.00520499     
  1.2e+010        5.9494e-005     -4.4186e-005    0.605471        -0.527657       0.312423        0.192758        0.284698        0.221393        0.633247        -0.508797       0.691431        -0.400077       0.267712        0.249729        0.234981        0.272314        0.714534        -0.378982       0.00172694      0.0060035       -0.0015363      -0.00444161     -0.00102928     -0.00450113     0.00159163      0.00562537     
  1.3e+010        5.9494e-005     -4.4186e-005    0.570564        -0.540358       0.335216        0.188196        0.310918        0.22168         0.574387        -0.549043       0.665585        -0.40767        0.286706        0.260437        0.255439        0.287924        0.676504        -0.39848        0.00185949      0.00637156      -0.00159242     -0.00486389     -0.00105377     -0.00497542     0.00179409      0.0061947      
  1.4e+010        5.9494e-005     -4.4186e-005    0.526984        -0.5655         0.365166        0.188043        0.334946        0.220459        0.57083         -0.544189       0.644113        -0.430417       0.31672         0.268467        0.278969        0.293192        0.673029        -0.404516       0.00187728      0.00693176      -0.00176024     -0.00524845     -0.00115895     -0.00526996     0.00172616      0.00643673     
  1.5e+010        5.9494e-005     -4.4186e-005    0.489302        -0.587335       0.389416        0.180602        0.370275        0.209577        0.527679        -0.568681       0.6225          -0.447621       0.341256        0.271268        0.315391        0.29489         0.654281        -0.427421       0.00192889      0.00747701      -0.00184669     -0.00561543     -0.00137767     -0.00569047     0.0017192       0.00701143     
  1.6e+010        5.9494e-005     -4.4186e-005    0.467624        -0.591622       0.410428        0.16249         0.392998        0.196127        0.477049        -0.603564       0.599353        -0.460794       0.358048        0.263176        0.33158         0.291214        0.620349        -0.449734       0.00206029      0.00793049      -0.00195512     -0.00587806     -0.00142815     -0.00598398     0.00191043      0.00763555     
  1.7e+010        5.9494e-005     -4.4186e-005    0.422651        -0.609494       0.433782        0.1578          0.409977        0.193722        0.470099        -0.590113       0.570482        -0.478869       0.375756        0.263712        0.342951        0.291828        0.604045        -0.454603       0.00216999      0.00849495      -0.0020363      -0.00621195     -0.0014224      -0.00625283     0.00199417      0.00793198     
  1.8e+010        5.9494e-005     -4.4186e-005    0.388755        -0.618459       0.45883         0.143544        0.442615        0.176136        0.417958        -0.611682       0.544792        -0.484524       0.398714        0.269247        0.373521        0.296093        0.575107        -0.467698       0.00228647      0.00901793      -0.00210533     -0.00671751     -0.0015722      -0.00679482     0.00209314      0.00854889     
  1.9e+010        5.9494e-005     -4.4186e-005    0.357563        -0.630422       0.470748        0.117532        0.458675        0.154119        0.384216        -0.629282       0.521509        -0.491989       0.413287        0.260139        0.390204        0.291351        0.550063        -0.475896       0.00246092      0.00948643      -0.00225061     -0.00698981     -0.00168312     -0.00712658     0.00228727      0.00902518     
  2e+010          5.9494e-005     -4.4186e-005    0.314662        -0.631437       0.487558        0.108668        0.473373        0.144133        0.370081        -0.620634       0.494535        -0.500828       0.42999         0.258989        0.405113        0.287931        0.536437        -0.478093       0.00262507      0.0100283       -0.00235355     -0.00735268     -0.00177249     -0.00743569     0.00237036      0.00934072     
  2.1e+010        5.9494e-005     -4.4186e-005    0.288282        -0.638669       0.500843        0.0898083       0.492697        0.122303        0.330946        -0.630526       0.477094        -0.501704       0.445935        0.258179        0.426987        0.286528        0.514633        -0.484518       0.00274334      0.0104338       -0.00244456     -0.00773066     -0.00192365     -0.00785917     0.00248932      0.00983592     
  2.2e+010        5.9494e-005     -4.4186e-005    0.258962        -0.641557       0.511545        0.0608647       0.505359        0.100763        0.290695        -0.645704       0.451481        -0.509181       0.463052        0.245032        0.442445        0.281185        0.491047        -0.49007        0.00293987      0.011022        -0.00266121     -0.00806745     -0.00201408     -0.00825865     0.00269198      0.010354       
  2.3e+010        5.9494e-005     -4.4186e-005    0.224521        -0.63794        0.520992        0.0518669       0.51304         0.0892157       0.28274         -0.635519       0.431219        -0.512923       0.472358        0.242387        0.450923        0.275028        0.481357        -0.490296       0.00311159      0.0114353       -0.00273983     -0.0083348      -0.00210878     -0.00846972     0.00278477      0.010587       
  2.4e+010        5.9494e-005     -4.4186e-005    0.197878        -0.636998       0.54245         0.0430081       0.537542        0.07221         0.248119        -0.637972       0.41445         -0.514731       0.490712        0.247938        0.474647        0.273427        0.457532        -0.503923       0.00313015      0.0119163       -0.00269114     -0.00887696     -0.00219292     -0.00897787     0.00276013      0.0112647      
  2.5e+010        5.9494e-005     -4.4186e-005    0.173107        -0.635658       0.538064        0.00769229      0.540278        0.0432755       0.205198        -0.652186       0.388716        -0.516533       0.499011        0.228734        0.486475        0.262907        0.435497        -0.504881       0.00347004      0.0124856       -0.00296112     -0.00912146     -0.00237347     -0.00936447     0.00306655      0.0117463      
  2.6e+010        5.9494e-005     -4.4186e-005    0.133582        -0.618296       0.55132         0.0054244       0.543262        0.0459157       0.205321        -0.626857       0.366052        -0.504196       0.510687        0.237683        0.485916        0.271857        0.425931        -0.487675       0.00374846      0.0127943       -0.00309029     -0.0095976      -0.0023402      -0.00968798     0.00323708      0.011807       
  2.7e+010        5.9494e-005     -4.4186e-005    0.12971         -0.623247       0.579322        -0.0125511      0.580093        0.0106807       0.160786        -0.634431       0.367861        -0.513943       0.535625        0.235055        0.526276        0.256577        0.402377        -0.513295       0.0035127       0.0133043       -0.00304076     -0.0101354      -0.00263463     -0.0102589      0.00311699      0.0128211      
  2.8e+010        5.9494e-005     -4.4186e-005    0.0954135       -0.624734       0.562566        -0.052617       0.568244        -0.0203864      0.142361        -0.64657        0.339441        -0.51314        0.543004        0.209025        0.533126        0.240967        0.391454        -0.508996       0.00404925      0.0139603       -0.00350457     -0.0103426      -0.0029252      -0.0105836      0.00348452      0.0131603      
  2.9e+010        5.9494e-005     -4.4186e-005    0.0720298       -0.613031       0.570319        -0.0626699      0.576255        -0.0304109      0.126517        -0.632333       0.325609        -0.51582        0.550149        0.205535        0.540747        0.237766        0.382405        -0.507964       0.0041376       0.0143633       -0.00356938     -0.0106164      -0.00297915     -0.0108646      0.00357124      0.0134279      
  3e+010          5.9494e-005     -4.4186e-005    0.042373        -0.614864       0.574972        -0.0849925      0.577511        -0.0552831      0.0980137       -0.633938       0.310872        -0.51396        0.567725        0.199699        0.55563         0.228069        0.366116        -0.511832       0.00431393      0.0149125       -0.00374513     -0.0111547      -0.00316229     -0.0113092      0.00368266      0.0140351      
  3.1e+010        5.9494e-005     -4.4186e-005    0.0365233       -0.605146       0.57726         -0.107284       0.585913        -0.0805329      0.0679038       -0.633769       0.310923        -0.516291       0.584676        0.183866        0.579361        0.212232        0.352424        -0.525164       0.00438092      0.0153276       -0.00399399     -0.011492       -0.00347913     -0.0117432      0.00374814      0.0147715      
  3.2e+010        5.9494e-005     -4.4186e-005    0.00837771      -0.601828       0.561634        -0.118933       0.573912        -0.0978438      0.0360558       -0.628111       0.28521         -0.516262       0.568443        0.174669        0.56912         0.200193        0.325645        -0.521567       0.00478451      0.0157054       -0.00400402     -0.0115756      -0.00358779     -0.011897       0.00420486      0.0150975      
  3.3e+010        5.9494e-005     -4.4186e-005    -0.0292639      -0.590842       0.583847        -0.146523       0.589959        -0.11907        0.0275329       -0.615223       0.256794        -0.525562       0.59245         0.167625        0.58386         0.195482        0.318177        -0.521065       0.00483073      0.0167587       -0.00415426     -0.0123319      -0.00356598     -0.0125149      0.00417591      0.0156348      
  3.4e+010        5.9494e-005     -4.4186e-005    -0.0287139      -0.593127       0.560506        -0.166034       0.570427        -0.148269       -0.016834       -0.616832       0.260875        -0.507848       0.588334        0.157096        0.586973        0.177994        0.282518        -0.524198       0.00530448      0.0166633       -0.00443487     -0.0125562      -0.00404099     -0.0127899      0.00474207      0.0164748      
  3.5e+010        5.9494e-005     -4.4186e-005    -0.075816       -0.570139       0.559514        -0.180434       0.574321        -0.148235       -0.0161666      -0.609768       0.219831        -0.518715       0.58991         0.147925        0.585196        0.184542        0.292417        -0.515226       0.00551379      0.0176692       -0.0045248      -0.012789       -0.00378605     -0.0131529      0.00468358      0.016277       
  3.6e+010        5.9494e-005     -4.4186e-005    -0.075905       -0.554488       0.567264        -0.19096        0.571291        -0.17945        -0.0734871      -0.585662       0.221053        -0.506186       0.59584         0.1529          0.592835        0.164878        0.240157        -0.531499       0.00564407      0.0177976       -0.00431436     -0.0135617      -0.00404259     -0.0136498      0.00491319      0.0177336      
  3.7e+010        5.9494e-005     -4.4186e-005    -0.132241       -0.523054       0.546211        -0.212934       0.5629          -0.189012       -0.0807123      -0.571611       0.166622        -0.501144       0.596681        0.13673         0.596926        0.166954        0.233337        -0.501037       0.0064214       0.0193369       -0.00484826     -0.0142538      -0.00421891     -0.0146494      0.00556161      0.0179393      
  3.8e+010        5.9494e-005     -4.4186e-005    -0.103227       -0.511364       0.555904        -0.194811       0.564691        -0.17018        -0.0707183      -0.536594       0.187251        -0.46523        0.594687        0.164319        0.587594        0.190318        0.22804         -0.468316       0.00666477      0.0183521       -0.00498261     -0.0143551      -0.0043563      -0.0145748      0.00603192      0.0175682      
  3.9e+010        5.9494e-005     -4.4186e-005    -0.10551        -0.500579       0.596639        -0.227886       0.607141        -0.205823       -0.0710101      -0.52782        0.195994        -0.458604       0.648827        0.16672         0.644198        0.191995        0.242881        -0.459515       0.006382        0.0194157       -0.00537716     -0.0156626      -0.00479239     -0.0159106      0.00572585      0.01846        
  4e+010          5.9494e-005     -4.4186e-005    -0.101142       -0.512787       0.586635        -0.265401       0.603572        -0.241869       -0.0633907      -0.548445       0.205844        -0.460468       0.665631        0.145185        0.665051        0.176054        0.258053        -0.463493       0.0066585       0.0197421       -0.00602677     -0.0157424      -0.00538018     -0.0161492      0.00588758      0.0187029      
  4.1e+010        5.9494e-005     -4.4186e-005    -0.156043       -0.514036       0.562297        -0.300731       0.579937        -0.273619       -0.090986       -0.564297       0.187652        -0.478841       0.682587        0.108666        0.68049         0.143443        0.27122         -0.478129       0.00712426      0.0209755       -0.0067135      -0.0161066      -0.00593848     -0.0165225      0.00603178      0.0191705      
  4.2e+010        5.9494e-005     -4.4186e-005    -0.139962       -0.511956       0.571239        -0.312313       0.583351        -0.29892        -0.126882       -0.547542       0.213763        -0.481642       0.695303        0.105143        0.697175        0.124129        0.250768        -0.500166       0.00682646      0.0207586       -0.00659658     -0.0164327      -0.00620845     -0.0167158      0.00595192      0.0201921      
