! VERSION = 6.00
!Measured by: Marcus Mueller on Fri Nov 16 09:41:29 WEST 2018
!TECHNOLOGY: Teledyne
!WAFER: w096
!DIE Nr.: y
!TRANSISTOR Name: 0p25x10x1_full
!Emitter size: 0.25x10
!Configuration: CBE
!Temperature: 298
BEGIN_HEADER
 ICCAP_INPUTS
  vs         V  S GROUND GND 0 CON        0
  ve         V  E GROUND GND 0 CON        0
  vc         V  C GROUND SMU_C 0.0375 SYNC       1 0.5 vb
  vb         V  B GROUND SMU_B 0.003 LIN        2    0.6        0.83       24   0.01      
  freq       F  LIN        1    1e+009     5e+010     50   1e+009    
 ICCAP_OUTPUTS
  ib         I  B GROUND SMU_B B
  ic         I  C GROUND SMU_C B
  S          S  B C GROUND NWA B
  S_deemb    S P1 P2 GROUND n/a B
  Y          Y P1 P2 GROUND n/a B
 ICCAP_VALUES
  MEAS_BY "Marcus Mueller"
  TECH "Teledyne"
  WAFER "w096"
  DIE "y"
  TRAN "0p25x10x1_full"
  WIDTH "0.25"
  LENGTH "10"
  CONFIG "CBE"
  TEMP "298"
END_HEADER

BEGIN_DB
 ICCAP_VAR vs         0              
 ICCAP_VAR ve         0              
 ICCAP_VAR vc         1.1            
 ICCAP_VAR vb         0.6            

 #freq            ib              ic              R:S(1,1)        I:S(1,1)        R:S(1,2)        I:S(1,2)        R:S(2,1)        I:S(2,1)        R:S(2,2)        I:S(2,2)        R:S_deemb(1,1)  I:S_deemb(1,1)  R:S_deemb(1,2)  I:S_deemb(1,2)  R:S_deemb(2,1)  I:S_deemb(2,1)  R:S_deemb(2,2)  I:S_deemb(2,2)  R:Y(1,1)        I:Y(1,1)        R:Y(1,2)        I:Y(1,2)        R:Y(2,1)        I:Y(2,1)        R:Y(2,2)        I:Y(2,2)       
  1e+009          1.8126e-006     1.3574e-005     0.99276         -0.0361094      0.000978375     0.00705787      -0.0546343      0.0164835       0.908351        -0.294721       0.993045        -0.0201224      0.000916368     0.00696053      -0.0539834      0.0151726       0.870472        -0.277595       6.72492e-005    0.000200573     1.96892e-006    -7.44816e-005   0.000591065     -6.92706e-005   0.000923895     0.00310312     
  2e+009          1.8126e-006     1.3574e-005     0.991198        -0.0720641      0.00199406      0.0148006       -0.0497458      0.0215122       1.01576         -0.200809       0.992807        -0.0395437      0.00175601      0.0143839       -0.0494785      0.0198617       1.00063         -0.195435       6.29057e-005    0.000394527     -6.42362e-007   -0.000144655    0.000513705     -0.00013924     -0.000196345    0.00193098     
  3e+009          1.8126e-006     1.3574e-005     0.987773        -0.106252       0.00197534      0.0223617       -0.0501024      0.0285507       0.996766        -0.0918474      0.990571        -0.0583713      0.00101419      0.0219282       -0.0513283      0.0257088       1.00325         -0.0477001      7.48373e-005    0.000582981     1.45675e-006    -0.000220006    0.000527331     -0.000230138    -4.63668e-005   0.000469469    
  4e+009          1.8126e-006     1.3574e-005     0.982843        -0.142295       0.00536661      0.0295114       -0.0471431      0.0401824       0.972785        -0.204122       0.989027        -0.0778074      0.0031621       0.0291476       -0.0499949      0.0359091       0.976095        -0.122706       7.44824e-005    0.000777843     -2.17733e-006   -0.00029748     0.000541358     -0.000311493    0.000159217     0.0012443      
  5e+009          1.8126e-006     1.3574e-005     0.97737         -0.17795        0.00725235      0.0365532       -0.0430151      0.0472165       0.984899        -0.209062       0.98721         -0.0975794      0.00452314      0.0360114       -0.0462521      0.042708        0.986869        -0.139893       7.28153e-005    0.000977173     -2.20186e-006   -0.000366193    0.000514504     -0.000372495    2.55817e-005    0.0014015      
  6e+009          1.8126e-006     1.3574e-005     0.970118        -0.211624       0.00882518      0.0440003       -0.0421222      0.0564362       0.982526        -0.187844       0.983978        -0.116773       0.00471309      0.0436867       -0.0471172      0.0512037       0.99601         -0.0957812      8.11321e-005    0.00117145      -5.52432e-007   -0.000442309    0.000526262     -0.000462236    -1.68911e-005   0.000948489    
  7e+009          1.8126e-006     1.3574e-005     0.960824        -0.246719       0.0146383       0.0503468       -0.0358226      0.0663342       0.95792         -0.281339       0.980765        -0.135556       0.00801357      0.0506063       -0.0439075      0.0602507       0.978064        -0.144881       8.49214e-005    0.00136327      -8.40495e-006   -0.000519987    0.000527118     -0.000542906    9.87729e-005    0.00146083     
  8e+009          1.8126e-006     1.3574e-005     0.95158         -0.280722       0.0170694       0.0566674       -0.0317922      0.0724899       0.964629        -0.28196        0.977295        -0.155463       0.00962035      0.0568072       -0.0404544      0.0663588       0.980405        -0.163062       8.67205e-005    0.0015675       -4.51429e-006   -0.000584167    0.000512151     -0.00059887     4.33125e-005    0.00163854     
  9e+009          1.8126e-006     1.3574e-005     0.939705        -0.316953       0.0202801       0.0635012       -0.0283089      0.0817617       0.961517        -0.281185       0.97226         -0.174099       0.0106672       0.0645201       -0.0400963      0.0753874       0.988225        -0.143278       0.000100486     0.00176101      -2.99403e-006   -0.000661947    0.000521791     -0.000689033    -9.57016e-006   0.00142734     
  1e+010          1.8126e-006     1.3574e-005     0.928161        -0.347352       0.0267405       0.0681599       -0.0218266      0.0896389       0.931769        -0.350085       0.967526        -0.193895       0.0144295       0.0706631       -0.0372423      0.0834113       0.971682        -0.17679        0.000104782     0.0019678       -1.0627e-005    -0.000735889    0.000531653     -0.000765687    9.55603e-005    0.00178841     
  1.1e+010        1.8126e-006     1.3574e-005     0.910183        -0.382407       0.0299535       0.0739858       -0.0168604      0.0942972       0.935835        -0.357159       0.961724        -0.212168       0.016207        0.077093        -0.0333154      0.0887454       0.973231        -0.19465        0.000119956     0.00216247      -1.45848e-006   -0.00080398     0.00051758      -0.000817321    4.14471e-005    0.00196348     
  1.2e+010        1.8126e-006     1.3574e-005     0.896654        -0.415644       0.0326088       0.0791123       -0.0133066      0.103355        0.927233        -0.374864       0.953634        -0.232709       0.0165851       0.0834925       -0.0331496      0.0984034       0.976088        -0.190756       0.000147113     0.0023843       1.5606e-005     -0.000869749    0.000544618     -0.000910697    1.39506e-005    0.00191663     
  1.3e+010        1.8126e-006     1.3574e-005     0.877481        -0.435787       0.0396733       0.0914104       -0.00534086     0.118567        0.888589        -0.434396       0.944589        -0.239706       0.0188003       0.099187        -0.0313969      0.115815        0.95679         -0.211977       0.000203892     0.00247103      4.41341e-005    -0.00104307     0.00058876      -0.00109237     0.000146293     0.00216308     
  1.4e+010        1.8126e-006     1.3574e-005     0.86082         -0.470548       0.0493272       0.0948716       0.00475216      0.119489        0.895595        -0.43598        0.947972        -0.259203       0.0308561       0.105764        -0.0195002      0.119478        0.963906        -0.227483       0.000109578     0.00266708      -4.14665e-005   -0.00112969     0.000493944     -0.0011397      3.06859e-005    0.0023115      
  1.5e+010        1.8126e-006     1.3574e-005     0.835994        -0.511116       0.0560289       0.0972717       0.0148356       0.126209        0.882991        -0.459248       0.939334        -0.283581       0.0382845       0.105626        -0.00929155     0.123803        0.973669        -0.232565       0.000121689     0.00294307      -9.78324e-005   -0.00114548     0.000420595     -0.00119877     -8.21364e-005   0.00234774     
  1.6e+010        1.8126e-006     1.3574e-005     0.829061        -0.524282       0.0650997       0.099433        0.0246871       0.131982        0.843846        -0.524236       0.933913        -0.301362       0.0398289       0.106268        -0.00897181     0.126725        0.953431        -0.264713       0.000117945     0.00313488      -8.11875e-005   -0.00116935     0.000462187     -0.00122808     3.2706e-005     0.00271457     
  1.7e+010        1.8126e-006     1.3574e-005     0.801699        -0.557708       0.0715099       0.103971        0.0302001       0.133279        0.847099        -0.517165       0.921704        -0.320902       0.0415732       0.111371        -0.00654497     0.128414        0.947613        -0.282961       0.000169827     0.00336785      -5.86999e-005   -0.0012338      0.000471453     -0.00125006     3.35869e-005    0.00291033     
  1.8e+010        1.8126e-006     1.3574e-005     0.780969        -0.586197       0.0795016       0.106659        0.0410797       0.139164        0.821549        -0.548435       0.913161        -0.33707        0.0436213       0.119752        -0.0034235      0.140117        0.946946        -0.284155       0.00018393      0.00355664      -3.97926e-005   -0.00132696     0.000492063     -0.00137452     2.28427e-005    0.00292284     
  1.9e+010        1.8126e-006     1.3574e-005     0.757529        -0.618524       0.0900117       0.104999        0.0534727       0.141999        0.787036        -0.594438       0.903878        -0.353027       0.0496842       0.123929        0.00278634      0.147509        0.927688        -0.308133       0.000205139     0.00375286      -5.49993e-005   -0.00140448     0.00049337      -0.00147268     0.000127581     0.00322355     
  2e+010          1.8126e-006     1.3574e-005     0.729088        -0.637584       0.0952225       0.107812        0.0593792       0.142823        0.78243         -0.597643       0.895137        -0.368105       0.0535455       0.129654        0.00796932      0.151064        0.924621        -0.323882       0.000223919     0.00393829      -4.82737e-005   -0.0014801      0.00048161      -0.00152264     9.65527e-005    0.00339184     
  2.1e+010        1.8126e-006     1.3574e-005     0.701879        -0.667796       0.103082        0.107533        0.0707073       0.145699        0.758504        -0.619949       0.883985        -0.382688       0.0569316       0.135257        0.0123928       0.160655        0.924134        -0.325392       0.000260522     0.00412963      -4.63424e-005   -0.00155423     0.000490846     -0.00163523     8.24257e-005    0.00341004     
  2.2e+010        1.8126e-006     1.3574e-005     0.680548        -0.687665       0.113196        0.104673        0.0801489       0.144228        0.714356        -0.666401       0.872018        -0.402737       0.0647544       0.138574        0.0178214       0.164535        0.905845        -0.34558        0.000280743     0.00438514      -7.34146e-005   -0.00163692     0.000497489     -0.00170167     0.000180012     0.00368081     
  2.3e+010        1.8126e-006     1.3574e-005     0.650114        -0.7056         0.117828        0.105555        0.0848951       0.144099        0.711448        -0.667078       0.862912        -0.416815       0.0683371       0.14241         0.0220057       0.167015        0.901054        -0.360786       0.000298421     0.00456755      -6.54117e-005   -0.00169718     0.000496886     -0.00174186     0.000161629     0.00385171     
  2.4e+010        1.8126e-006     1.3574e-005     0.620903        -0.727069       0.1221          0.110289        0.0943211       0.149068        0.70608         -0.678643       0.84805         -0.432374       0.0688696       0.149419        0.0269859       0.175367        0.905247        -0.3704         0.000355817     0.00478986      -1.55605e-005   -0.00177257     0.000510699     -0.00184219     6.80771e-005    0.00392798     
  2.5e+010        1.8126e-006     1.3574e-005     0.600326        -0.746505       0.13072         0.103039        0.103948        0.147093        0.642721        -0.727354       0.834397        -0.453926       0.0749655       0.150659        0.0308598       0.18077         0.882712        -0.385397       0.000369282     0.00507418      -2.87849e-005   -0.00183793     0.00054775      -0.00192682     0.000216094     0.00417118     
  2.6e+010        1.8126e-006     1.3574e-005     0.557253        -0.744458       0.141467        0.116412        0.110433        0.155021        0.645818        -0.716298       0.820057        -0.440898       0.0803253       0.170761        0.0339348       0.193545        0.872922        -0.392376       0.000540897     0.0050134       1.29613e-005    -0.00208508     0.000584001     -0.00209116     0.000245107     0.00427778     
  2.7e+010        1.8126e-006     1.3574e-005     0.554476        -0.776793       0.149573        0.112813        0.128443        0.155207        0.633092        -0.737282       0.820223        -0.475041       0.0886368       0.169022        0.0503141       0.19938         0.882097        -0.409185       0.000346103     0.00537003      -2.26372e-005   -0.00208501     0.000501082     -0.00218998     7.12745e-005    0.00442182     
  2.8e+010        1.8126e-006     1.3574e-005     0.509708        -0.790656       0.158144        0.0971031       0.136808        0.142035        0.58393         -0.770406       0.798716        -0.482847       0.0988752       0.166544        0.0569257       0.197548        0.860117        -0.422668       0.000505618     0.00558376      -0.000100252    -0.00215554     0.000474628     -0.00224077     0.00021692      0.00467044     
  2.9e+010        1.8126e-006     1.3574e-005     0.489895        -0.802356       0.162305        0.098767        0.141257        0.142515        0.568367        -0.773384       0.79326         -0.501627       0.102998        0.169411        0.0624834       0.200454        0.853791        -0.436685       0.000438194     0.00580362      -8.45624e-005   -0.00221014     0.000478782     -0.00229285     0.000200629     0.00484217     
  3e+010          1.8126e-006     1.3574e-005     0.446252        -0.814462       0.16864         0.0958565       0.150687        0.139759        0.552497        -0.786202       0.776713        -0.50314        0.109918        0.176251        0.070728        0.208326        0.854915        -0.444394       0.000565582     0.00592802      -9.74836e-005   -0.00232874     0.000462568     -0.00242494     0.000127364     0.00492178     
  3.1e+010        1.8126e-006     1.3574e-005     0.435585        -0.827371       0.175881        0.0923155       0.158763        0.139678        0.514411        -0.813564       0.778113        -0.52739        0.12429         0.171325        0.084087        0.206196        0.847672        -0.469295       0.000397399     0.00618456      -0.000199697    -0.0023581      0.000386616     -0.00245957     6.72945e-005    0.00522655     
  3.2e+010        1.8126e-006     1.3574e-005     0.397667        -0.833971       0.173969        0.0857377       0.165423        0.131331        0.462215        -0.818743       0.750545        -0.539713       0.113141        0.170239        0.0811534       0.209142        0.815335        -0.480964       0.000580302     0.00646052      -5.49396e-005   -0.00234719     0.000494293     -0.00252888     0.000311291     0.00549263     
  3.3e+010        1.8126e-006     1.3574e-005     0.369113        -0.852358       0.186512        0.0901841       0.172157        0.135785        0.472888        -0.824636       0.740436        -0.557915       0.121907        0.181241        0.0845233       0.216715        0.820113        -0.488978       0.000523559     0.00670489      -3.47791e-005   -0.0025021      0.00054599      -0.00260836     0.000190775     0.00554463     
  3.4e+010        1.8126e-006     1.3574e-005     0.324634        -0.85456        0.18667         0.0791545       0.180491        0.1215          0.416266        -0.845197       0.713625        -0.555656       0.124169        0.18123         0.0932246       0.216046        0.794058        -0.50215        0.000786041     0.00688309      -2.06524e-005   -0.00258191     0.00050958      -0.00271816     0.000353218     0.00583344     
  3.5e+010        1.8126e-006     1.3574e-005     0.304694        -0.859535       0.189525        0.0780685       0.176778        0.12512         0.386361        -0.852537       0.702345        -0.580242       0.128087        0.18141         0.0892231       0.218099        0.781184        -0.511053       0.000707718     0.0071962       -2.40536e-006   -0.00262721     0.000623461     -0.00271717     0.000416809     0.00598984     
  3.6e+010        1.8126e-006     1.3574e-005     0.261483        -0.857146       0.187266        0.0888462       0.184726        0.126996        0.368383        -0.856845       0.671908        -0.583799       0.117816        0.191473        0.0930618       0.224656        0.772651        -0.53358        0.000954031     0.0074369       0.000220695     -0.0026912      0.000696246     -0.00283646     0.000335786     0.00623452     
  3.7e+010        1.8126e-006     1.3574e-005     0.237261        -0.849442       0.201376        0.0892382       0.192381        0.135212        0.305378        -0.85051        0.659705        -0.585505       0.129399        0.20837         0.0927311       0.24422         0.733286        -0.519526       0.000985361     0.00753582      0.000242295     -0.00301275     0.000868184     -0.00309977     0.000738816     0.00634319     
  3.8e+010        1.8126e-006     1.3574e-005     0.22408         -0.825762       0.214204        0.105177        0.20476         0.148221        0.313697        -0.82795        0.646313        -0.555125       0.131994        0.234675        0.0970363       0.267003        0.723212        -0.507562       0.00126692      0.00731122      0.000353993     -0.00335198     0.00094512      -0.00342853     0.000826859     0.00626834     
  3.9e+010        1.8126e-006     1.3574e-005     0.231545        -0.845286       0.257014        0.0982458       0.248518        0.143884        0.31802         -0.832118       0.66883         -0.56301        0.17909         0.255142        0.142267        0.292078        0.749395        -0.49934        0.000826832     0.00734551      1.92966e-005    -0.00378397     0.000643311     -0.00389097     0.000476498     0.00614923     
  4e+010          1.8126e-006     1.3574e-005     0.209734        -0.869103       0.267333        0.0678169       0.265439        0.118152        0.299702        -0.862633       0.669243        -0.584272       0.202955        0.241063        0.168492        0.286016        0.752489        -0.512351       0.000657205     0.00765297      -0.000230097    -0.00379506     0.000427177     -0.00398228     0.00036881      0.00635738     
  4.1e+010        1.8126e-006     1.3574e-005     0.157167        -0.872195       0.264283        0.0406486       0.259475        0.0908103       0.25563         -0.874863       0.661622        -0.600467       0.228958        0.225992        0.190269        0.26843         0.75113         -0.532384       0.000624937     0.0079748       -0.000495459    -0.00385508     0.00018864      -0.00397074     0.000280339     0.00666051     
  4.2e+010        1.8126e-006     1.3574e-005     0.139669        -0.884007       0.264456        0.0404344       0.271982        0.0801003       0.243968        -0.881232       0.653916        -0.62646        0.235138        0.220413        0.216419        0.261747        0.764484        -0.557674       0.000485776     0.00833566      -0.000480812    -0.0038218      6.80681e-006    -0.00405914     -6.31825e-006   0.00685918     
