! VERSION = 6.00
!Measured by: Marcus Mueller on Fri Nov 16 09:35:30 WEST 2018
!TECHNOLOGY: Teledyne
!WAFER: w096
!DIE Nr.: y
!TRANSISTOR Name: 0p25x10x1_full
!Emitter size: 0.25x10
!Configuration: CBE
!Temperature: 298
BEGIN_HEADER
 ICCAP_INPUTS
  vs         V  S GROUND GND 0 CON        0
  ve         V  E GROUND GND 0 CON        0
  vc         V  C GROUND SMU_C 0.0375 LIN        1    0.5        -0.5       101  -0.01     
  vb         V  B GROUND SMU_B 0.003 LIST       2 2 0 -0.4
 ICCAP_OUTPUTS
  ib         I  B GROUND SMU_B B
  ic         I  C GROUND SMU_C B
 ICCAP_VALUES
  MEAS_BY "Marcus Mueller"
  TECH "Teledyne"
  WAFER "w096"
  DIE "y"
  TRAN "0p25x10x1_full"
  WIDTH "0.25"
  LENGTH "10"
  CONFIG "CBE"
  TEMP "298"
END_HEADER

BEGIN_DB
 ICCAP_VAR vs         0              
 ICCAP_VAR ve         0              
 ICCAP_VAR vb         0              

 #vc              ib              ic             
  0.5             -2.8954e-007    3.0064e-007    
  0.49            -2.8498e-007    2.8762e-007    
  0.48            -2.8082e-007    2.7958e-007    
  0.47            -2.764e-007     2.7132e-007    
  0.46            -2.7086e-007    2.666e-007     
  0.45            -2.6566e-007    2.5962e-007    
  0.44            -2.6052e-007    2.5668e-007    
  0.43            -2.5672e-007    2.5254e-007    
  0.42            -2.515e-007     2.4764e-007    
  0.41            -2.4734e-007    2.417e-007     
  0.4             -2.423e-007     2.3852e-007    
  0.39            -2.3716e-007    2.3176e-007    
  0.38            -2.3268e-007    2.2656e-007    
  0.37            -2.2798e-007    2.2366e-007    
  0.36            -2.2286e-007    2.176e-007     
  0.35            -2.1802e-007    2.1412e-007    
  0.34            -2.134e-007     2.0832e-007    
  0.33            -2.0804e-007    2.0352e-007    
  0.32            -2.0208e-007    1.9724e-007    
  0.31            -1.9672e-007    1.9036e-007    
  0.3             -1.9224e-007    1.851e-007     
  0.29            -1.865e-007     1.8062e-007    
  0.28            -1.8028e-007    1.7458e-007    
  0.27            -1.7446e-007    1.6836e-007    
  0.26            -1.6866e-007    1.6478e-007    
  0.25            -1.626e-007     1.5902e-007    
  0.24            -1.5628e-007    1.536e-007     
  0.23            -1.503e-007     1.4684e-007    
  0.22            -1.438e-007     1.4048e-007    
  0.21            -1.3756e-007    1.3594e-007    
  0.2             -1.3042e-007    1.2534e-007    
  0.19            -1.2382e-007    1.1888e-007    
  0.18            -1.1704e-007    1.1256e-007    
  0.17            -1.1036e-007    1.0568e-007    
  0.16            -1.0392e-007    9.778e-008     
  0.15            -9.7144e-008    1.5882e-007    
  0.14            -9.0482e-008    1.6054e-007    
  0.13            -8.3956e-008    8.2778e-008    
  0.12            -7.724e-008     7.6588e-008    
  0.11            -7.0522e-008    1.1284e-007    
  0.1             -6.3946e-008    6.2678e-008    
  0.09            -5.7556e-008    5.417e-008     
  0.08            -5.1166e-008    4.802e-008     
  0.07            -4.481e-008     4.2646e-008    
  0.06            -3.8518e-008    3.5644e-008    
  0.05            -3.2064e-008    2.8256e-008    
  0.04            -2.5808e-008    2.0868e-008    
  0.03            -1.927e-008     1.4454e-008    
  0.02            -1.2686e-008    8.148e-009     
  0.01            -5.8156e-009    2.764e-009     
  0               1.3346e-009     -7.3222e-009   
  -0.01           8.8888e-009     -1.1946e-008   
  -0.02           1.6916e-008     -2.1646e-008   
  -0.03           2.5644e-008     -3.1172e-008   
  -0.04           3.515e-008      -3.9504e-008   
  -0.05           4.5392e-008     -4.9928e-008   
  -0.06           5.6552e-008     -6.3046e-008   
  -0.07           6.9292e-008     -7.5908e-008   
  -0.08           8.3308e-008     -1.7074e-007   
  -0.09           9.8564e-008     -9.902e-008    
  -0.1            1.161e-007      -1.1472e-007   
  -0.11           1.354e-007      -1.3634e-007   
  -0.12           1.5806e-007     -1.5924e-007   
  -0.13           1.8284e-007     -1.8228e-007   
  -0.14           2.1198e-007     -2.123e-007    
  -0.15           2.4352e-007     -2.4284e-007   
  -0.16           2.8032e-007     -2.7858e-007   
  -0.17           3.232e-007      -3.202e-007    
  -0.18           3.7132e-007     -3.6848e-007   
  -0.19           4.2636e-007     -4.2094e-007   
  -0.2            4.8968e-007     -4.8324e-007   
  -0.21           5.631e-007      -5.572e-007    
  -0.22           6.4802e-007     -6.3992e-007   
  -0.23           7.4602e-007     -7.3778e-007   
  -0.24           8.5988e-007     -8.258e-007    
  -0.25           9.9334e-007     -1.0338e-006   
  -0.26           1.1478e-006     -1.1496e-006   
  -0.27           1.3244e-006     -1.3306e-006   
  -0.28           1.5338e-006     -1.5392e-006   
  -0.29           1.7808e-006     -1.7826e-006   
  -0.3            2.0702e-006     -2.0696e-006   
  -0.31           2.4068e-006     -2.409e-006    
  -0.32           2.8054e-006     -2.807e-006    
  -0.33           3.2746e-006     -3.274e-006    
  -0.34           3.8176e-006     -3.8216e-006   
  -0.35           4.4746e-006     -4.4808e-006   
  -0.36           5.2442e-006     -5.2452e-006   
  -0.37           6.1534e-006     -6.1504e-006   
  -0.38           7.2476e-006     -7.2534e-006   
  -0.39           8.5296e-006     -8.5356e-006   
  -0.4            1.00772e-005    -1.0082e-005   
  -0.41           1.1914e-005     -1.193e-005    
  -0.42           1.4144e-005     -1.4156e-005   
  -0.43           1.6776e-005     -1.6836e-005   
  -0.44           1.9936e-005     -1.993e-005    
  -0.45           2.3688e-005     -2.3816e-005   
  -0.46           2.827e-005      -2.8368e-005   
  -0.47           3.3678e-005     -3.3852e-005   
  -0.48           4.0236e-005     -4.0346e-005   
  -0.49           4.805e-005      -4.829e-005    
  -0.5            5.7536e-005     -5.785e-005    
END_DB

BEGIN_DB
 ICCAP_VAR vs         0              
 ICCAP_VAR ve         0              
 ICCAP_VAR vb         -0.4           

 #vc              ib              ic             
  0.5             -5.104e-007     5.2308e-007    
  0.49            -5.0346e-007    5.0416e-007    
  0.48            -4.9702e-007    4.9596e-007    
  0.47            -4.9166e-007    4.868e-007     
  0.46            -4.854e-007     4.7978e-007    
  0.45            -4.8e-007       4.72e-007      
  0.44            -4.7366e-007    4.648e-007     
  0.43            -4.6674e-007    4.5894e-007    
  0.42            -4.6136e-007    4.5366e-007    
  0.41            -4.5664e-007    4.4828e-007    
  0.4             -4.498e-007     4.404e-007     
  0.39            -4.437e-007     4.3486e-007    
  0.38            -4.3738e-007    4.2876e-007    
  0.37            -4.3356e-007    4.2454e-007    
  0.36            -4.2792e-007    4.1834e-007    
  0.35            -4.2104e-007    4.119e-007     
  0.34            -4.1614e-007    4.064e-007     
  0.33            -4.099e-007     4.0022e-007    
  0.32            -4.0412e-007    3.9482e-007    
  0.31            -3.988e-007     3.896e-007     
  0.3             -3.9288e-007    3.8426e-007    
  0.29            -3.874e-007     3.7724e-007    
  0.28            -3.8216e-007    3.7222e-007    
  0.27            -3.7638e-007    3.6668e-007    
  0.26            -3.7104e-007    3.6088e-007    
  0.25            -3.659e-007     3.571e-007     
  0.24            -3.6066e-007    3.5012e-007    
  0.23            -3.5568e-007    3.4536e-007    
  0.22            -3.5046e-007    3.4064e-007    
  0.21            -3.4582e-007    3.3642e-007    
  0.2             -3.4052e-007    3.3e-007       
  0.19            -3.3522e-007    3.2502e-007    
  0.18            -3.3108e-007    3.2106e-007    
  0.17            -3.2566e-007    3.162e-007     
  0.16            -3.2038e-007    3.0982e-007    
  0.15            -3.1584e-007    3.0724e-007    
  0.14            -3.1062e-007    3.0042e-007    
  0.13            -3.0532e-007    2.958e-007     
  0.12            -3.0088e-007    2.9094e-007    
  0.11            -2.966e-007     2.8766e-007    
  0.1             -2.9138e-007    2.829e-007     
  0.09            -2.8762e-007    2.7672e-007    
  0.08            -2.817e-007     2.711e-007     
  0.07            -2.7744e-007    2.6896e-007    
  0.06            -2.728e-007     2.6322e-007    
  0.05            -2.6672e-007    2.5862e-007    
  0.04            -2.6298e-007    2.5312e-007    
  0.03            -2.5818e-007    2.4972e-007    
  0.02            -2.5436e-007    2.4452e-007    
  0.01            -2.4852e-007    2.4038e-007    
  0               -2.447e-007     2.354e-007     
  -0.01           -2.4012e-007    2.3068e-007    
  -0.02           -2.3514e-007    2.2464e-007    
  -0.03           -2.2964e-007    2.2024e-007    
  -0.04           -2.2498e-007    2.1626e-007    
  -0.05           -2.2074e-007    2.1118e-007    
  -0.06           -2.1538e-007    2.067e-007     
  -0.07           -2.1066e-007    2.0132e-007    
  -0.08           -2.0506e-007    1.9568e-007    
  -0.09           -1.9966e-007    1.9092e-007    
  -0.1            -1.9428e-007    1.857e-007     
  -0.11           -1.8834e-007    1.7978e-007    
  -0.12           -1.8258e-007    1.7458e-007    
  -0.13           -1.7686e-007    1.6846e-007    
  -0.14           -1.7058e-007    1.6234e-007    
  -0.15           -1.6428e-007    1.562e-007     
  -0.16           -1.5836e-007    1.5074e-007    
  -0.17           -1.5182e-007    1.4506e-007    
  -0.18           -1.4606e-007    1.379e-007     
  -0.19           -1.3842e-007    1.3156e-007    
  -0.2            -1.3232e-007    1.2552e-007    
  -0.21           -1.2572e-007    1.1824e-007    
  -0.22           -1.1884e-007    1.1166e-007    
  -0.23           -1.1188e-007    1.0788e-007    
  -0.24           -1.0558e-007    1.0192e-007    
  -0.25           -9.8586e-008    9.44e-008      
  -0.26           -9.2126e-008    1.5228e-007    
  -0.27           -8.5574e-008    1.5258e-007    
  -0.28           -7.8982e-008    1.418e-007     
  -0.29           -7.2482e-008    9.904e-008     
  -0.3            -6.5926e-008    6.278e-008     
  -0.31           -5.9334e-008    5.3436e-008    
  -0.32           -5.2954e-008    4.933e-008     
  -0.33           -4.6736e-008    4.2152e-008    
  -0.34           -4.0304e-008    3.3966e-008    
  -0.35           -3.388e-008     2.7312e-008    
  -0.36           -2.7526e-008    2.1086e-008    
  -0.37           -2.1062e-008    1.5648e-008    
  -0.38           -1.4298e-008    7.802e-009     
  -0.39           -7.4624e-009    2.04e-010      
  -0.4            -3.2284e-010    -7.4044e-009   
  -0.41           7.1764e-009     -1.1632e-008   
  -0.42           1.5218e-008     -2.021e-008    
  -0.43           2.3892e-008     -3.1096e-008   
  -0.44           3.3248e-008     -4.1122e-008   
  -0.45           4.3476e-008     -5.2056e-008   
  -0.46           5.4818e-008     -6.1756e-008   
  -0.47           6.7476e-008     -7.5346e-008   
  -0.48           8.122e-008      -1.7698e-007   
  -0.49           9.659e-008      -1.0294e-007   
  -0.5            1.1432e-007     -1.1822e-007   
END_DB

