! VERSION = 6.00
!Measured by: Marcus Mueller on Fri Nov 16 09:47:49 WEST 2018
!TECHNOLOGY: Teledyne
!WAFER: w096
!DIE Nr.: y
!TRANSISTOR Name: 0p25x10x1_full
!Emitter size: 0.25x10
!Configuration: CBE
!Temperature: 298
BEGIN_HEADER
 ICCAP_INPUTS
  vce        V  C GROUND SMU_C 0.0375 LIN        2    0.8        -0.6       141  -0.01     
  vb         V  B GROUND SMU_B 0.003 CON        0
  vs         V  S GROUND GND 0.0375 CON        0
  ve         V  E GROUND GND 0.0375 CON        0
  freq       F  LIN        1    1e+009     5e+010     50   1e+009    
 ICCAP_OUTPUTS
  ic         I  C GROUND SMU_C B
  S          S  B C Ground NWA B
  S_deemb    S P1 P2 GROUND n/a B
  Y          Y P1 P2 GROUND n/a B
 ICCAP_VALUES
  MEAS_BY "Marcus Mueller"
  TECH "Teledyne"
  WAFER "w096"
  DIE "y"
  TRAN "0p25x10x1_full"
  WIDTH "0.25"
  LENGTH "10"
  CONFIG "CBE"
  TEMP "298"
END_HEADER

BEGIN_DB
 ICCAP_VAR vce        0.8            
 ICCAP_VAR vb         0              
 ICCAP_VAR vs         0              
 ICCAP_VAR ve         0              

 #freq            ic              R:S(1,1)        I:S(1,1)        R:S(1,2)        I:S(1,2)        R:S(2,1)        I:S(2,1)        R:S(2,2)        I:S(2,2)        R:S_deemb(1,1)  I:S_deemb(1,1)  R:S_deemb(1,2)  I:S_deemb(1,2)  R:S_deemb(2,1)  I:S_deemb(2,1)  R:S_deemb(2,2)  I:S_deemb(2,2)  R:Y(1,1)        I:Y(1,1)        R:Y(1,2)        I:Y(1,2)        R:Y(2,1)        I:Y(2,1)        R:Y(2,2)        I:Y(2,2)       
  1e+009          4.5212e-007     0.998859        -0.0325633      0.000751138     0.00675914      0.000802386     0.00760523      0.937667        -0.187732       0.999086        -0.0164823      0.000705287     0.0066653       0.000426114     0.00725433      0.89736         -0.174764       7.53174e-006    0.000164977     -3.7494e-007    -7.0381e-005    3.16002e-006    -7.62424e-005   0.000904298     0.00192549     
  2e+009          4.5212e-007     0.997742        -0.0652844      0.00158606      0.0144608       0.00202235      0.014335        1.00529         -0.152153       0.999133        -0.0325673      0.00137021      0.0140519       0.0019001       0.0137308       0.990165        -0.147792       2.3921e-006     0.000325994     -9.59873e-007   -0.000141526    -6.54063e-006   -0.0001388      -1.23745e-005   0.00148444     
  3e+009          4.5212e-007     0.994634        -0.0963234      0.00171576      0.0215127       0.00215606      0.0216757       0.998718        -0.0885201      0.996946        -0.0481416      0.000798579     0.0210658       0.00126297      0.0212547       1.00506         -0.0442955      1.67113e-005    0.00048267      1.74816e-006    -0.000210456    -2.79606e-006   -0.000212554    -6.24021e-005   0.000440574    
  4e+009          4.5212e-007     0.991032        -0.128386       0.00449817      0.028316        0.00431241      0.0290662       0.979171        -0.158756       0.996271        -0.06341        0.00240935      0.0278838       0.00197819      0.0286555       0.978683        -0.077316       1.30984e-005    0.000636044     -4.34885e-006   -0.000282971    5.5219e-007     -0.000290446    0.000180549     0.00078889     
  5e+009          4.5212e-007     0.986044        -0.160308       0.00626528      0.0357685       0.00632623      0.0351599       0.984529        -0.18452        0.99442         -0.0793182      0.00362572      0.0351666       0.00359525      0.0344888       0.984807        -0.115735       1.81055e-005    0.000796792     -1.67827e-006   -0.000356232    -2.04118e-006   -0.000349405    7.85941e-005    0.00117147     
  6e+009          4.5212e-007     0.98031         -0.192388       0.00783594      0.0422684       0.00819764      0.0425514       0.985425        -0.176863       0.992262        -0.0966697      0.00391091      0.0418692       0.00433086      0.0421628       0.997881        -0.0845973      2.15735e-005    0.000972435     -9.64471e-007   -0.000421533    -4.88981e-006   -0.000424845    -2.35367e-005   0.000846808    
  7e+009          4.5212e-007     0.972849        -0.224189       0.0123859       0.0488025       0.0120782       0.049292        0.96616         -0.234759       0.990104        -0.111807       0.00602327      0.0487621       0.0057583       0.0494331       0.9797          -0.0977817      2.38391e-005    0.00112662      -8.62208e-006   -0.000497062    -5.24068e-006   -0.000503531    0.000143473     0.000996592    
  8e+009          4.5212e-007     0.964886        -0.255505       0.0151932       0.0555658       0.0152205       0.0549921       0.966426        -0.260434       0.987228        -0.128767       0.00794576      0.0554902       0.00816756      0.0549853       0.979571        -0.141744       2.86131e-005    0.00130023      -3.35402e-006   -0.00056689     -6.27021e-006   -0.000562135    8.75023e-005    0.00144076     
  9e+009          4.5212e-007     0.955548        -0.288237       0.0179468       0.061309        0.0184609       0.0618091       0.966803        -0.265602       0.983659        -0.14336        0.00871027      0.06201         0.0091014       0.0624202       0.991255        -0.127152       4.00354e-005    0.00145127      -2.20169e-006   -0.000630559    -5.54365e-006   -0.000635186    -1.36054e-005   0.00127918     
  1e+010          4.5212e-007     0.945393        -0.319767       0.0234704       0.0665385       0.0229072       0.0673093       0.943272        -0.311116       0.980036        -0.163906       0.0115261       0.0684746       0.0107464       0.0690188       0.975966        -0.136339       3.94726e-005    0.00166305      -1.06262e-005   -0.000704876    -1.96676e-006   -0.000709142    0.000122609     0.00139264     
  1.1e+010        4.5212e-007     0.931117        -0.34887        0.0269186       0.07249         0.0264011       0.0716231       0.94044         -0.338925       0.976303        -0.175286       0.0135204       0.0750955       0.0132328       0.0740358       0.974665        -0.176041       5.25803e-005    0.00178374      -3.874e-007     -0.000774837    5.86325e-007    -0.000763729    6.75918e-005    0.00179423     
  1.2e+010        4.5212e-007     0.918513        -0.381468       0.0286461       0.0766222       0.0292359       0.0774049       0.936361        -0.352448       0.968373        -0.194903       0.0132058       0.0802936       0.0136674       0.0812223       0.980753        -0.167015       8.9668e-005     0.00199428      1.65731e-005    -0.000826271    1.36807e-005    -0.0008364      1.75991e-005    0.00169289     
  1.3e+010        4.5212e-007     0.901179        -0.400319       0.0340016       0.0897972       0.0334245       0.0914383       0.905747        -0.387875       0.960193        -0.199801       0.0135737       0.0963331       0.0127036       0.0980532       0.962499        -0.162331       0.000146125     0.00205774      4.43405e-005    -0.000999477    5.63781e-005    -0.00101523     0.000193437     0.00167459     
  1.4e+010        4.5212e-007     0.89433         -0.431412       0.0441482       0.0937624       0.0438278       0.0921816       0.905102        -0.415164       0.971934        -0.212756       0.0260417       0.103702        0.0251209       0.101788        0.968692        -0.205024       -5.37397e-006   0.002173        -3.69439e-005   -0.00108582     -3.18894e-005   -0.00106484     4.33677e-005    0.00210313     
  1.5e+010        4.5212e-007     0.869453        -0.466396       0.0497959       0.0956169       0.0512729       0.096876        0.898858        -0.428625       0.960826        -0.231079       0.0328522       0.10274         0.0343144       0.104423        0.981903        -0.198597       6.17886e-005    0.0023886       -9.95435e-005   -0.00108956     -0.000110324    -0.00110943     -7.55428e-005   0.00202064     
  1.6e+010        4.5212e-007     0.862603        -0.486716       0.0581993       0.0992104       0.0576937       0.10063         0.866684        -0.471206       0.957068        -0.256234       0.0336399       0.104199        0.032358        0.105044        0.960386        -0.206451       3.36384e-005    0.00264603      -8.52653e-005   -0.00111922     -7.04608e-005   -0.00112457     0.000120013     0.00214191     
  1.7e+010        4.5212e-007     0.844632        -0.51432        0.06437         0.103629        0.0627515       0.103628        0.862728        -0.49343        0.951544        -0.266903       0.0351087       0.109011        0.0334887       0.108142        0.956556        -0.255994       5.41819e-005    0.00276574      -5.21817e-005   -0.00117379     -3.85046e-005   -0.00116081     3.41392e-005    0.00264422     
  1.8e+010        4.5212e-007     0.826178        -0.536799       0.0703488       0.106022        0.069807        0.107121        0.849709        -0.506804       0.942393        -0.275908       0.0352582       0.116212        0.034367        0.117274        0.961823        -0.235182       0.000109307     0.002881        -4.11463e-005   -0.00124792     -2.94721e-005   -0.0012561      2.46291e-005    0.00242486     
  1.9e+010        4.5212e-007     0.803218        -0.567983       0.080323        0.107357        0.0797756       0.109186        0.816149        -0.544394       0.931625        -0.289742       0.0398433       0.122695        0.0391581       0.124105        0.938996        -0.250146       0.000164272     0.00305494      -4.75369e-005   -0.00134486     -3.66212e-005   -0.00135703     0.000203969     0.00263668     
  2e+010          4.5212e-007     0.78659         -0.58864        0.0857454       0.109762        0.0836411       0.111406        0.807621        -0.566897       0.934355        -0.301526       0.0439026       0.128197        0.0418799       0.128403        0.938999        -0.286161       9.28815e-005    0.00316504      -3.82225e-005   -0.00140574     -1.75486e-005   -0.00140153     9.44162e-005    0.00299846     
  2.1e+010        4.5212e-007     0.757256        -0.612626       0.0931367       0.110132        0.0937455       0.111716        0.790778        -0.579987       0.917197        -0.309621       0.0464667       0.133861        0.0468226       0.135755        0.941165        -0.275238       0.000226203     0.0033059       -4.62786e-005   -0.00148047     -4.39238e-005   -0.00150048     9.4255e-005     0.00288811     
  2.2e+010        4.5212e-007     0.739165        -0.637907       0.102159        0.109089        0.100084        0.111887        0.753339        -0.611365       0.909667        -0.333553       0.0524795       0.138157        0.0492083       0.140736        0.921294        -0.277222       0.00020839      0.00357506      -6.96932e-005   -0.00156086     -2.83149e-005   -0.00157592     0.000278073     0.00297099     
  2.3e+010        4.5212e-007     0.714784        -0.655369       0.108096        0.11077         0.105505        0.111143        0.742022        -0.635474       0.905568        -0.343583       0.0569211       0.143447        0.0542548       0.143058        0.918257        -0.318863       0.000204385     0.00369328      -5.25341e-005   -0.0016292      -2.7426e-005    -0.0016158      0.000166709     0.00340221     
  2.4e+010        4.5212e-007     0.687342        -0.679203       0.111014        0.113501        0.112091        0.114184        0.740255        -0.647451       0.892052        -0.359923       0.0569191       0.147953        0.0575055       0.14889         0.9259          -0.327487       0.000266427     0.00390727      -1.40109e-005   -0.00167479     -1.63352e-005   -0.00168623     5.19624e-005    0.0034608      
  2.5e+010        4.5212e-007     0.666481        -0.704982       0.118625        0.109435        0.117695        0.113263        0.687066        -0.671989       0.87979         -0.387772       0.0604561       0.151166        0.0580383       0.154231        0.899899        -0.312645       0.00026227      0.00423546      -1.97551e-005   -0.0017502      1.63781e-005    -0.00177155     0.000352091     0.00340419     
  2.6e+010        4.5212e-007     0.638961        -0.693883       0.130325        0.124707        0.124926        0.124836        0.67646         -0.687199       0.875494        -0.355794       0.0656385       0.173861        0.0603463       0.171248        0.889507        -0.351875       0.000397591     0.0039317       2.72049e-005    -0.00200838     7.01034e-005    -0.00196117     0.000272126     0.00383687     
  2.7e+010        4.5212e-007     0.624346        -0.738863       0.135198        0.117656        0.139772        0.118804        0.681014        -0.699327       0.869102        -0.409209       0.0728367       0.167579        0.0765422       0.170297        0.911077        -0.352515       0.000235952     0.00451161      -1.60564e-005   -0.00194937     -4.1103e-005    -0.00199151     6.03229e-005    0.00377981     
  2.8e+010        4.5212e-007     0.592024        -0.742946       0.145368        0.107091        0.146007        0.111213        0.631751        -0.721317       0.853218        -0.399224       0.0813447       0.169843        0.0795145       0.172932        0.881482        -0.353277       0.000427376     0.00449722      -9.12316e-005   -0.00205557     -5.96167e-005   -0.00207879     0.00033978      0.00391437     
  2.9e+010        4.5212e-007     0.574397        -0.765995       0.150468        0.108095        0.150875        0.112065        0.614935        -0.74194        0.855186        -0.427758       0.0870402       0.173002        0.0854315       0.176853        0.882795        -0.384797       0.000263405     0.0047754       -6.94218e-005   -0.00209687     -3.60996e-005   -0.00212742     0.000187213     0.00422743     
  3e+010          4.5212e-007     0.5379          -0.766596       0.155414        0.106173        0.154121        0.10811         0.602298        -0.753435       0.838104        -0.410962       0.0914005       0.180088        0.0889091       0.180978        0.885978        -0.389019       0.000498462     0.00469851      -9.02216e-005   -0.00220367     -6.14341e-005   -0.0022012      0.000122578     0.00426321     
  3.1e+010        4.5212e-007     0.520437        -0.791024       0.161205        0.103906        0.162097        0.107856        0.566161        -0.771811       0.83916         -0.450534       0.104791        0.175719        0.10373         0.178951        0.87493         -0.403111       0.00028996      0.00511305      -0.000176392    -0.00222527     -0.000150399    -0.00225177     0.000169085     0.00447632     
  3.2e+010        4.5212e-007     0.487823        -0.802636       0.162366        0.0983779       0.165534        0.102419        0.528475        -0.776191       0.818101        -0.463611       0.0946112       0.176388        0.0955456       0.182595        0.855006        -0.404482       0.000421234     0.00532926      -4.97587e-005   -0.00222447     -2.7775e-005    -0.00229068     0.000353126     0.00455745     
  3.3e+010        4.5212e-007     0.476078        -0.811339       0.170149        0.102633        0.170155        0.105313        0.530518        -0.796946       0.817158        -0.463086       0.099479        0.185147        0.0978522       0.188518        0.859413        -0.433125       0.000414341     0.0053296       -2.04651e-005   -0.00232262     1.27852e-005    -0.00234721     0.000155198     0.00481918     
  3.4e+010        4.5212e-007     0.418626        -0.818579       0.172728        0.0954938       0.176833        0.0971028       0.488258        -0.802655       0.778805        -0.468728       0.100409        0.189277        0.102243        0.192406        0.836445        -0.42134        0.000745093     0.00560648      4.25973e-006    -0.0024437      2.57707e-006    -0.00248503     0.000418998     0.00482039     
  3.5e+010        4.5212e-007     0.410085        -0.836486       0.177473        0.093858        0.1741          0.0992895       0.44196         -0.820045       0.78585         -0.500764       0.107066        0.19049         0.100378        0.19435         0.8134          -0.44828        0.00047711      0.00587931      2.46467e-005    -0.00249207     0.000112713     -0.00249219     0.000503176     0.00520377     
  3.6e+010        4.5212e-007     0.347923        -0.837037       0.170771        0.10187         0.177117        0.0997018       0.445583        -0.824915       0.737742        -0.515554       0.0943352       0.195517        0.100808        0.197224        0.825768        -0.45994        0.000850649     0.0063052       0.000227973     -0.0025012      0.00017392      -0.00255666     0.000308425     0.00522949     
  3.7e+010        4.5212e-007     0.367921        -0.821535       0.18136         0.11039         0.177302        0.116934        0.384444        -0.808145       0.76067         -0.483099       0.0962878       0.217984        0.0883114       0.220917        0.77865         -0.429928       0.000762185     0.00580401      0.000262983     -0.00279516     0.000361869     -0.00277947     0.000882959     0.00515386     
  3.8e+010        4.5212e-007     0.329322        -0.798435       0.198839        0.127042        0.195798        0.131592        0.37256         -0.804552       0.724716        -0.464627       0.102506        0.24796         0.097319        0.24917         0.762374        -0.450134       0.00113873      0.00581667      0.000408296     -0.00320818     0.000469824     -0.00318986     0.000831088     0.00543997     
  3.9e+010        4.5212e-007     0.356503        -0.81797        0.236751        0.123957        0.236946        0.125936        0.402506        -0.805155       0.764007        -0.460671       0.143193        0.270976        0.141539        0.273574        0.810135        -0.420996       0.000644733     0.00566897      3.66066e-005    -0.00353044     6.76251e-005    -0.00354767     0.000395233     0.00501399     
  4e+010          4.5212e-007     0.323745        -0.851733       0.253546        0.0953987       0.254984        0.103404        0.368725        -0.833484       0.759122        -0.495712       0.171375        0.261208        0.167426        0.27049         0.79493         -0.440029       0.000470606     0.00613909      -0.00017648     -0.00360841     -8.26939e-005   -0.00367776     0.00044021      0.00537411     
  4.1e+010        4.5212e-007     0.308359        -0.853694       0.254008        0.072817        0.251569        0.0805742       0.337485        -0.842379       0.786985        -0.478983       0.195865        0.256787        0.188598        0.261485        0.803017        -0.444648       0.000317977     0.00589954      -0.000466894    -0.00364972     -0.000368426    -0.0036546      0.000355728     0.00546947     
  4.2e+010        4.5212e-007     0.262987        -0.87306        0.251893        0.0673449       0.256717        0.0664389       0.342414        -0.855694       0.758098        -0.533828       0.206253        0.245223        0.212632        0.247288        0.83929         -0.465511       0.000285491     0.00665952      -0.00048246     -0.00357345     -0.000530648    -0.00363152     -7.44668e-005   0.00552099     
  4.3e+010        4.5212e-007     0.238364        -0.864663       0.251352        0.0543813       0.252096        0.0581021       0.302281        -0.860086       0.758078        -0.513184       0.222376        0.24041         0.21982         0.247521        0.826405        -0.462868       0.000422123     0.00651751      -0.000701206    -0.00365942     -0.000633742    -0.00371271     6.49759e-005    0.00562056     
  4.4e+010        4.5212e-007     0.207063        -0.909437       0.254493        0.0426116       0.253158        0.0573847       0.229355        -0.861692       0.758062        -0.601364       0.240884        0.219059        0.226443        0.235351        0.787743        -0.499919       -0.000153747    0.00735801      -0.000756119    -0.00363471     -0.00051375     -0.00368836     0.00025166      0.00622304     
