! VERSION = 6.00
!Measured by: Marcus Mueller on Fri Nov 16 09:44:55 WEST 2018
!TECHNOLOGY: Teledyne
!WAFER: w096
!DIE Nr.: y
!TRANSISTOR Name: 0p25x10x1_full
!Emitter size: 0.25x10
!Configuration: CBE
!Temperature: 298
BEGIN_HEADER
 ICCAP_INPUTS
  ve         V  E GROUND GND 0.0375 CON        0
  vs         V  S GROUND GND 0.0375 CON        0
  vbe        V  B GROUND SMU_B 0.003 LIN        2    0.8        -0.5       131  -0.01     
  freq       F  LIN        1    1e+009     5e+010     50   1e+009    
  vc         V  C GROUND SMU_C 0.0375 SYNC       1 0 vbe
 ICCAP_OUTPUTS
  S          S  B C Ground NWA B
  ib         I  B GROUND SMU_B B
  ic         I  C GROUND SMU_C B
  S_deemb    S P1 P2 GROUND n/a B
  Y          Y P1 P2 GROUND n/a B
 ICCAP_VALUES
  MEAS_BY "Marcus Mueller"
  TECH "Teledyne"
  WAFER "w096"
  DIE "y"
  TRAN "0p25x10x1_full"
  WIDTH "0.25"
  LENGTH "10"
  CONFIG "CBE"
  TEMP "298"
END_HEADER

BEGIN_DB
 ICCAP_VAR ve         0              
 ICCAP_VAR vs         0              
 ICCAP_VAR vbe        0.8            
 ICCAP_VAR vc         0.8            

 #freq            R:S(1,1)        I:S(1,1)        R:S(1,2)        I:S(1,2)        R:S(2,1)        I:S(2,1)        R:S(2,2)        I:S(2,2)        ib              ic              R:S_deemb(1,1)  I:S_deemb(1,1)  R:S_deemb(1,2)  I:S_deemb(1,2)  R:S_deemb(2,1)  I:S_deemb(2,1)  R:S_deemb(2,2)  I:S_deemb(2,2)  R:Y(1,1)        I:Y(1,1)        R:Y(1,2)        I:Y(1,2)        R:Y(2,1)        I:Y(2,1)        R:Y(2,2)        I:Y(2,2)       
  1e+009          0.746166        -0.0873582      0.00190838      0.0103272       -8.73201        1.62192         0.906871        -0.329111       0.0002195       0.0066248       0.747366        -0.0745061      0.00176871      0.0101689       -8.57616        1.45707         0.869191        -0.310638       0.0027778       0.000361334     1.03435e-006    -0.000124088    0.104577        0.0012817       0.000827184     0.0028911      
  2e+009          0.730869        -0.166692       0.00411645      0.0203734       -8.10779        1.71337         0.975215        -0.308688       0.0002195       0.0066248       0.734173        -0.140078       0.00368478      0.0199701       -8.05349        1.52212         0.961702        -0.299682       0.00280219      0.000757157     5.42785e-007    -0.000233465    0.0942276       -0.000189423    -0.000106251    0.00208021     
  3e+009          0.70595         -0.243085       0.00650735      0.0302862       -8.21017        1.95262         0.956484        -0.274062       0.0002195       0.0066248       0.714559        -0.207211       0.00507329      0.0301128       -8.29982        1.54937         0.971188        -0.229129       0.00287474      0.00106028      -1.71629e-006   -0.000352374    0.0974039       -0.0021932      -8.85863e-005   0.000832138    
  4e+009          0.663474        -0.322556       0.0133051       0.0380447       -7.9288         2.86856         0.875081        -0.41519        0.0002195       0.0066248       0.686066        -0.277609       0.0103069       0.0384314       -8.11521        2.23413         0.898006        -0.337094       0.00280539      0.00149777      -9.74986e-006   -0.000471636    0.0997545       -0.00272326     0.000196931     0.00158199     
  5e+009          0.623333        -0.384871       0.0188821       0.0461012       -7.38766        3.1887          0.850004        -0.473558       0.0002195       0.0066248       0.651028        -0.328224       0.0150081       0.0464987       -7.57325        2.5471          0.874577        -0.406455       0.00290515      0.00188356      -9.74163e-006   -0.000585353    0.095695        -0.00276404     6.97816e-005    0.00200005     
  6e+009          0.577974        -0.449647       0.0247343       0.0538351       -7.29796        3.63485         0.816416        -0.503979       0.0002195       0.0066248       0.616339        -0.388888       0.0192392       0.0551404       -7.61764        2.87098         0.86227         -0.421114       0.00290793      0.00221549      -1.19001e-005   -0.000703865    0.0980441       -0.004083       -2.89214e-005   0.00165522     
  7e+009          0.512971        -0.498949       0.0341953       0.0574404       -6.74626        4.21981         0.715681        -0.591302       0.0002195       0.0066248       0.572082        -0.438851       0.0263166       0.0607333       -7.26573        3.29625         0.784475        -0.481612       0.0028654       0.00262869      -2.53996e-005   -0.000823829    0.0992373       -0.00475036     0.000210836     0.00214729     
  8e+009          0.461706        -0.53785        0.0412561       0.0624877       -6.25746        4.37724         0.676094        -0.631941       0.0002195       0.0066248       0.527455        -0.468436       0.0320989       0.0660486       -6.75376        3.45687         0.745012        -0.53773        0.00305403      0.00298941      -2.29097e-005   -0.000934642    0.0964937       -0.00436525     0.000167894     0.00264281     
  9e+009          0.40152         -0.581969       0.0487938       0.0669642       -5.9915         4.77737         0.630619        -0.656801       0.0002195       0.0066248       0.480733        -0.51284        0.0377997       0.0725197       -6.63669        3.79388         0.719759        -0.557026       0.00304987      0.00332693      -2.5187e-005    -0.00105326     0.0982905       -0.00617433     3.49767e-005    0.00248023     
  1e+010          0.337323        -0.605157       0.0574754       0.0668884       -5.43622        5.06804         0.535105        -0.693226       0.0002195       0.0066248       0.43474         -0.54886        0.0448458       0.0754986       -6.27437        4.03303         0.64503         -0.583317       0.00297787      0.00377597      -3.79014e-005   -0.00117095     0.0992832       -0.00672628     0.000298783     0.00282459     
  1.1e+010        0.28391         -0.624294       0.0653093       0.0690053       -5.04239        5.17355         0.490406        -0.720981       0.0002195       0.0066248       0.392412        -0.559676       0.0511148       0.0790103       -5.88815        4.11297         0.605549        -0.624333       0.00315398      0.00400338      -4.12525e-005   -0.00128292     0.0977453       -0.00662298     0.000208528     0.00325901     
  1.2e+010        0.223311        -0.650014       0.0723103       0.0707554       -4.62128        5.45726         0.4422          -0.740609       0.0002195       0.0066248       0.341384        -0.594769       0.0566799       0.0832769       -5.62422        4.3775          0.575748        -0.641085       0.00315466      0.00449933      -2.69313e-005   -0.0013965      0.0984798       -0.00819954     8.24525e-005    0.00326081     
  1.3e+010        0.145304        -0.659589       0.0826705       0.0719207       -3.98215        5.58447         0.333037        -0.768515       0.0002195       0.0066248       0.276684        -0.62699        0.0657443       0.0893577       -5.1783         4.55156         0.487458        -0.669444       0.00317044      0.00487171      -6.72113e-006   -0.00161029     0.0996606       -0.00908752     0.000335417     0.00356678     
  1.4e+010        0.0956576       -0.64983        0.0914107       0.0682153       -3.63935        5.51007         0.285177        -0.761197       0.0002195       0.0066248       0.233916        -0.606352       0.0755501       0.0872575       -4.81015        4.43139         0.435692        -0.673597       0.00329521      0.00507251      -0.000104951    -0.00173199     0.0979131       -0.00896899     0.000271749     0.00403216     
  1.5e+010        0.0362997       -0.6395         0.0978038       0.0652919       -3.1996         5.57989         0.233065        -0.754478       0.0002195       0.0066248       0.188212        -0.596412       0.0816323       0.0851283       -4.58837        4.50198         0.413399        -0.663875       0.00340945      0.00543961      -0.000175809    -0.00180669     0.0983516       -0.0107095      4.47174e-005    0.0041099      
  1.6e+010        -0.00580161     -0.631409       0.10262         0.0609861       -2.77825        5.54466         0.160106        -0.738023       0.0002195       0.0066248       0.164933        -0.624168       0.0837815       0.0835888       -4.34285        4.56609         0.361221        -0.651485       0.00316653      0.00605739      -0.00015834     -0.0018712      0.0994032       -0.0108097      0.000508696     0.00437679     
  1.7e+010        -0.0457603      -0.626711       0.109637        0.0590752       -2.5222         5.47694         0.126223        -0.741004       0.0002195       0.0066248       0.134987        -0.615628       0.0881346       0.0835208       -4.05061        4.54722         0.329396        -0.683487       0.00343066      0.00628881      -0.000147971    -0.00196506     0.0982784       -0.010455       0.000354282     0.0049835      
  1.8e+010        -0.0939278      -0.608913       0.115085        0.0552749       -2.14921        5.48239         0.0801128       -0.725696       0.0002195       0.0066248       0.0860093       -0.620588       0.0931624       0.0847952       -3.79433        4.63181         0.296394        -0.676466       0.00349485      0.00673636      -0.000151928    -0.00210013     0.0993078       -0.0124078      0.000302797     0.0049902      
  1.9e+010        -0.132764       -0.586251       0.118778        0.0495856       -1.78112        5.36852         0.0272347       -0.702876       0.0002195       0.0066248       0.0464999       -0.61892        0.0977042       0.0835936       -3.51697        4.61843         0.241096        -0.66684        0.00354552      0.00714591      -0.000169107    -0.00223932     0.100499        -0.0133712      0.000554771     0.00532766     
  2e+010          -0.161331       -0.572715       0.122611        0.0471143       -1.55079        5.26432         0.000611915     -0.694215       0.0002195       0.0066248       0.0254344       -0.609196       0.10134         0.0828712       -3.27239        4.5328          0.212679        -0.67414        0.00371335      0.00740706      -0.000176097    -0.00233739     0.0991867       -0.01351        0.000559615     0.00578014     
  2.1e+010        -0.202807       -0.553361       0.127202        0.0422931       -1.25783        5.19934         -0.0377506      -0.675192       0.0002195       0.0066248       -0.0202019      -0.604422       0.106246        0.0826845       -3.05864        4.55978         0.181756        -0.665742       0.00382361      0.00785152      -0.000194182    -0.00248216     0.100422        -0.0150288      0.000468965     0.00585607     
  2.2e+010        -0.224144       -0.532539       0.128602        0.0375132       -1.00855        5.06075         -0.0755698      -0.650802       0.0002195       0.0066248       -0.047744       -0.603918       0.108798        0.0805685       -2.87446        4.48229         0.144083        -0.642355       0.00383394      0.0083289       -0.000222705    -0.00259552     0.101268        -0.015593       0.000837111     0.00605056     
  2.3e+010        -0.250406       -0.513278       0.13143         0.0334256       -0.827931       4.95623         -0.101078       -0.638418       0.0002195       0.0066248       -0.0670483      -0.586079       0.111567        0.0786019       -2.66895        4.38496         0.117843        -0.647502       0.00412164      0.0085884       -0.000243053    -0.00269409     0.100495        -0.0159053      0.000822138     0.00658211     
  2.4e+010        -0.280228       -0.498756       0.13737         0.0316956       -0.605012       4.92067         -0.129544       -0.634473       0.0002195       0.0066248       -0.0958806      -0.577393       0.115803        0.0800704       -2.49661        4.3801          0.0987144       -0.65678        0.00428587      0.00878826      -0.000226598    -0.00283159     0.100312        -0.0168838      0.000561787     0.00676037     
  2.5e+010        -0.303686       -0.481939       0.136473        0.0259049       -0.348343       4.79473         -0.158263       -0.605487       0.0002195       0.0066248       -0.126846       -0.591471       0.116742        0.0778989       -2.308          4.36365         0.0677536       -0.619861       0.00403479      0.00962995      -0.000221454    -0.00293492     0.101903        -0.0182513      0.00105163      0.00678212     
  2.6e+010        -0.335803       -0.451148       0.142524        0.0221288       -0.186132       4.54899         -0.204869       -0.587787       0.0002195       0.0066248       -0.154189       -0.55445        0.122819        0.0776474       -2.07836        4.12722         0.0148131       -0.635446       0.00474052      0.00956632      -0.00025285     -0.0032091      0.100792        -0.0179139      0.00106075      0.00764364     
  2.7e+010        -0.354525       -0.43438        0.146253        0.0185766       -0.0216901      4.56212         -0.2121         -0.576244       0.0002195       0.0066248       -0.169901       -0.553495       0.124569        0.0769571       -1.98714        4.12052         0.0247072       -0.620189       0.00468476      0.0100716       -0.000279119    -0.00324715     0.0999954       -0.0192096      0.00090942      0.00748054     
  2.8e+010        -0.352434       -0.402851       0.142043        0.0130325       0.127395        4.36704         -0.224066       -0.543436       0.0002195       0.0066248       -0.191212       -0.535879       0.125409        0.073158        -1.85396        4.06112         -0.0116199      -0.59159        0.00478551      0.0104595       -0.000352096    -0.00337246     0.102102        -0.021108       0.00125759      0.00784443     
  2.9e+010        -0.375894       -0.394847       0.145579        0.00981324      0.259181        4.30447         -0.244173       -0.533083       0.0002195       0.0066248       -0.199126       -0.535781       0.127409        0.073144        -1.73956        3.98771         -0.0201458      -0.588979       0.00478697      0.010774        -0.000341206    -0.0034563      0.100631        -0.0212602      0.00130612      0.00805942     
  3e+010          -0.385375       -0.370746       0.14709         0.00581881      0.381634        4.20282         -0.261784       -0.519991       0.0002195       0.0066248       -0.222093       -0.504997       0.130788        0.0720593       -1.63792        3.935           -0.0418409      -0.588489       0.00522781      0.0108065       -0.000406333    -0.00362193     0.101504        -0.0227909      0.00102433      0.00839012     
  3.1e+010        -0.405612       -0.353589       0.148322        0.00112992      0.565045        4.10914         -0.283494       -0.498669       0.0002195       0.0066248       -0.237383       -0.512886       0.135767        0.0690381       -1.57268        3.9225          -0.0572686      -0.566283       0.00465085      0.0113544       -0.000479094    -0.00372821     0.101849        -0.0224462      0.00105858      0.00842349     
  3.2e+010        -0.412863       -0.336679       0.146667        -0.00053085     0.669866        3.96155         -0.291556       -0.483661       0.0002195       0.0066248       -0.25641        -0.504116       0.13044         0.0675131       -1.36812        3.87458         -0.069599       -0.556782       0.00518069      0.012177        -0.00039141     -0.00376861     0.102918        -0.0253678      0.00139969      0.00889469     
  3.3e+010        -0.431829       -0.32155        0.151798        -0.00669964     0.822195        3.91849         -0.318091       -0.472024       0.0002195       0.0066248       -0.263904       -0.492697       0.134444        0.0670698       -1.26026        3.80836         -0.087194       -0.567888       0.00526615      0.0122528       -0.000391725    -0.00390485     0.101699        -0.025227       0.00114253      0.00939661     
  3.4e+010        -0.434205       -0.290239       0.148866        -0.010061       0.946754        3.71853         -0.326707       -0.450908       0.0002195       0.0066248       -0.292914       -0.47035        0.134907        0.0659898       -1.12168        3.72163         -0.11475        -0.548103       0.0057243       0.0127675       -0.000416775    -0.00412132     0.103526        -0.0278706      0.00130994      0.00972417     
  3.5e+010        -0.454515       -0.286861       0.149862        -0.0143142      1.04006         3.67115         -0.339658       -0.437179       0.0002195       0.0066248       -0.294012       -0.486645       0.135511        0.064607        -1.06565        3.666           -0.119655       -0.532185       0.00530847      0.0133027       -0.00040924     -0.0041524      0.102537        -0.0273033      0.00172038      0.00980813     
  3.6e+010        -0.468473       -0.258306       0.152726        -0.018767       1.25011         3.49696         -0.371889       -0.433373       0.0002195       0.0066248       -0.314391       -0.471765       0.13813         0.0654446       -0.868265       3.57523         -0.129155       -0.557483       0.00587339      0.0138477       -0.000292547    -0.00432815     0.100588        -0.0280232      0.00118393      0.0104469      
  3.7e+010        -0.47924        -0.238666       0.151141        -0.0214484      1.35514         3.2682          -0.395136       -0.404314       0.0002195       0.0066248       -0.333615       -0.473312       0.138822        0.0647231       -0.717561       3.45482         -0.172218       -0.5211         0.00557451      0.0145412       -0.000256421    -0.00459966     0.101781        -0.0300597      0.00201471      0.0109415      
  3.8e+010        -0.483706       -0.215526       0.151061        -0.0237812      1.29509         2.99385         -0.42007        -0.369486       0.0002195       0.0066248       -0.346202       -0.437534       0.138909        0.0637211       -0.626913       3.1584          -0.206896       -0.524376       0.00710008      0.0147668       -0.000285606    -0.0049525      0.100104        -0.0300632      0.00249098      0.012093       
  3.9e+010        -0.491197       -0.183575       0.155633        -0.0300297      1.21558         2.93321         -0.421982       -0.328286       0.0002195       0.0066248       -0.361637       -0.421989       0.14416         0.0629895       -0.729126       3.02735         -0.21614        -0.486416       0.00730501      0.0147502       -0.00057142     -0.0052615      0.100566        -0.0293297      0.00299166      0.01158        
  4e+010          -0.487458       -0.163951       0.152975        -0.0338972      1.20328         2.92213         -0.40708        -0.302209       0.0002195       0.0066248       -0.376017       -0.416494       0.144129        0.0617579       -0.794779       3.0154          -0.229824       -0.457904       0.00728203      0.0148114       -0.000716086    -0.00538517     0.103852        -0.0297856      0.00345815      0.0111934      
  4.1e+010        -0.478708       -0.14152        0.152297        -0.0387181      1.24313         2.88588         -0.404676       -0.292932       0.0002195       0.0066248       -0.38207        -0.376124       0.146253        0.0600651       -0.792168       2.98787         -0.233257       -0.431468       0.00770344      0.0146741       -0.00101654     -0.00554129     0.104828        -0.0338053      0.00317789      0.0112791      
  4.2e+010        -0.483879       -0.130361       0.153467        -0.0425382      1.32539         2.83925         -0.409687       -0.281268       0.0002195       0.0066248       -0.384078       -0.371129       0.148571        0.0605173       -0.764508       2.96576         -0.218297       -0.433085       0.00783365      0.0149112       -0.00104958     -0.00557033     0.102697        -0.0341198      0.00281824      0.0111762      
