! VERSION = 6.00
!Measured by: Marcus Mueller on Fri Nov 16 09:35:56 WEST 2018
!TECHNOLOGY: Teledyne
!WAFER: w096
!DIE Nr.: y
!TRANSISTOR Name: 0p25x10x1_full
!Emitter size: 0.25x10
!Configuration: CBE
!Temperature: 298
BEGIN_HEADER
 ICCAP_INPUTS
  vc         V  C GROUND SMU_C 0.003 LIN        1    0.8        -0.8       161  -0.01     
  ve         V  E GROUND GND 0 CON        0
  vs         V  S GROUND GND 0 CON        0
  vb         V  B GROUND SMU_B 0.003 SYNC       1 0 vc
 ICCAP_OUTPUTS
  ic         I  C GROUND SMU_C B
  ib         I  B GROUND SMU_B B
 ICCAP_VALUES
  MEAS_BY "Marcus Mueller"
  TECH "Teledyne"
  WAFER "w096"
  DIE "y"
  TRAN "0p25x10x1_full"
  WIDTH "0.25"
  LENGTH "10"
  CONFIG "CBE"
  TEMP "298"
END_HEADER

BEGIN_DB
 ICCAP_VAR ve         0              
 ICCAP_VAR vs         0              

 #vc              vb              ic              ib             
  0.8             0.8             0.0029994       0.0022426      
  0.79            0.79            0.0029994       0.0016366      
  0.78            0.78            0.0029994       0.0010546      
  0.77            0.77            0.0029994       0.00049996     
  0.76            0.76            0.0029516       0.00010934     
  0.75            0.75            0.0022826       8.8678e-005    
  0.74            0.74            0.001735        7.1128e-005    
  0.73            0.73            0.0012922       5.6348e-005    
  0.72            0.72            0.00094768      4.4208e-005    
  0.71            0.71            0.0006854       3.4456e-005    
  0.7             0.7             0.00049124      2.6716e-005    
  0.69            0.69            0.00034936      2.0652e-005    
  0.68            0.68            0.00024752      1.5962e-005    
  0.67            0.67            0.00017474      1.2326e-005    
  0.66            0.66            0.00012226      9.5014e-006    
  0.65            0.65            8.6296e-005     7.3402e-006    
  0.64            0.64            5.9742e-005     5.671e-006     
  0.63            0.63            4.145e-005      4.3836e-006    
  0.62            0.62            2.8628e-005     3.3856e-006    
  0.61            0.61            1.9666e-005     2.6208e-006    
  0.6             0.6             1.3446e-005     2.0316e-006    
  0.59            0.59            9.1882e-006     1.5798e-006    
  0.58            0.58            6.2244e-006     1.226e-006     
  0.57            0.57            4.2364e-006     9.5614e-007    
  0.56            0.56            2.8834e-006     7.47e-007      
  0.55            0.55            1.9588e-006     5.8608e-007    
  0.54            0.54            1.3298e-006     4.6024e-007    
  0.53            0.53            8.782e-007      3.6294e-007    
  0.52            0.52            6.0306e-007     2.8658e-007    
  0.51            0.51            4.1594e-007     2.2724e-007    
  0.5             0.5             2.835e-007      1.803e-007     
  0.49            0.49            1.9394e-007     1.4272e-007    
  0.48            0.48            1.3074e-007     1.1366e-007    
  0.47            0.47            9.778e-008      9.0784e-008    
  0.46            0.46            6.2678e-008     7.2672e-008    
  0.45            0.45            4.0464e-008     5.8174e-008    
  0.44            0.44            2.7686e-008     4.6768e-008    
  0.43            0.43            1.8552e-008     3.7602e-008    
  0.42            0.42            1.1274e-008     3.0338e-008    
  0.41            0.41            5.394e-009      2.4518e-008    
  0.4             0.4             6.7022e-009     1.9896e-008    
  0.39            0.39            2.06e-009       1.6126e-008    
  0.38            0.38            5.94e-010       1.3168e-008    
  0.37            0.37            -3.4e-010       1.0834e-008    
  0.36            0.36            -1.7876e-009    8.9426e-009    
  0.35            0.35            -3.579e-009     7.4542e-009    
  0.34            0.34            -3.2924e-009    6.253e-009     
  0.33            0.33            -3.2028e-009    5.238e-009     
  0.32            0.32            -3.3e-009       4.489e-009     
  0.31            0.31            -2.392e-009     3.8598e-009    
  0.3             0.3             -3.9494e-009    3.3722e-009    
  0.29            0.29            -3.762e-009     2.9632e-009    
  0.28            0.28            -2.496e-009     2.6446e-009    
  0.27            0.27            -4.8312e-009    2.4538e-009    
  0.26            0.26            -4.1132e-009    2.217e-009     
  0.25            0.25            -5.1124e-009    2.0432e-009    
  0.24            0.24            -5.2034e-009    1.9172e-009    
  0.23            0.23            -5.8274e-009    1.7862e-009    
  0.22            0.22            -5.1622e-009    1.7012e-009    
  0.21            0.21            -4.7974e-009    1.629e-009     
  0.2             0.2             -4.5e-009       1.555e-009     
  0.19            0.19            -5.268e-009     1.5016e-009    
  0.18            0.18            -5.2806e-009    1.5038e-009    
  0.17            0.17            -6.1984e-009    1.459e-009     
  0.16            0.16            -4.6648e-009    1.4396e-009    
  0.15            0.15            -4.7418e-009    1.398e-009     
  0.14            0.14            -6.176e-009     1.4494e-009    
  0.13            0.13            -5.6856e-009    1.3538e-009    
  0.12            0.12            -5.7706e-009    1.3322e-009    
  0.11            0.11            -5.1642e-009    1.321e-009     
  0.1             0.1             -4.867e-009     1.3218e-009    
  0.09            0.09            -6.0428e-009    1.362e-009     
  0.08            0.08            -6.2224e-009    1.3646e-009    
  0.07            0.07            -6.1686e-009    1.3388e-009    
  0.06            0.06            -5.4152e-009    1.3188e-009    
  0.05            0.05            -5.3272e-009    1.3872e-009    
  0.04            0.04            -6.1794e-009    1.291e-009     
  0.03            0.03            -6.835e-009     1.28e-009      
  0.02            0.02            -5.9104e-009    1.2704e-009    
  0.01            0.01            -5.4078e-009    1.3052e-009    
  0               0               -5.6282e-009    1.334e-009     
  -0.01           -0.01           -4.2162e-009    1.3172e-009    
  -0.02           -0.02           -6.362e-009     1.2408e-009    
  -0.03           -0.03           -6.4608e-009    1.24e-009      
  -0.04           -0.04           -5.4318e-009    1.3114e-009    
  -0.05           -0.05           -5.8704e-009    1.2794e-009    
  -0.06           -0.06           -5.7182e-009    1.2782e-009    
  -0.07           -0.07           -6.272e-009     1.2696e-009    
  -0.08           -0.08           -7.3194e-009    1.3094e-009    
  -0.09           -0.09           -6.2082e-009    1.307e-009     
  -0.1            -0.1            -5.6086e-009    1.266e-009     
  -0.11           -0.11           -6.1458e-009    1.1952e-009    
  -0.12           -0.12           -6.47e-009      1.2628e-009    
  -0.13           -0.13           -7.3918e-009    1.2406e-009    
  -0.14           -0.14           -5.8808e-009    1.2218e-009    
  -0.15           -0.15           -5.865e-009     1.196e-009     
  -0.16           -0.16           -6.8956e-009    1.1726e-009    
  -0.17           -0.17           -6.8346e-009    1.2264e-009    
  -0.18           -0.18           -7.0746e-009    1.1954e-009    
  -0.19           -0.19           -6.0346e-009    1.1778e-009    
  -0.2            -0.2            -6.352e-009     1.089e-009     
  -0.21           -0.21           -7.3068e-009    1.1364e-009    
  -0.22           -0.22           -6.9874e-009    1.1034e-009    
  -0.23           -0.23           -7.967e-009     1.094e-009     
  -0.24           -0.24           -6.7402e-009    1.0504e-009    
  -0.25           -0.25           -6.624e-009     1.079e-009     
  -0.26           -0.26           -6.3822e-009    1.0512e-009    
  -0.27           -0.27           -6.0274e-009    9.9808e-010    
  -0.28           -0.28           -7.4286e-009    9.5216e-010    
  -0.29           -0.29           -6.5728e-009    8.353e-010     
  -0.3            -0.3            -7.2296e-009    8.2384e-010    
  -0.31           -0.31           -8.1122e-009    7.1518e-010    
  -0.32           -0.32           -6.2926e-009    6.5108e-010    
  -0.33           -0.33           -7.2394e-009    6.5812e-010    
  -0.34           -0.34           -7.4374e-009    5.4994e-010    
  -0.35           -0.35           -7.5088e-009    4.7328e-010    
  -0.36           -0.36           -8.2464e-009    2.6526e-010    
  -0.37           -0.37           -7.328e-009     1.1556e-010    
  -0.38           -0.38           -7.9516e-009    5e-011         
  -0.39           -0.39           -7.737e-009     -1.3158e-010   
  -0.4            -0.4            -7.145e-009     -3.2774e-010   
  -0.41           -0.41           -7.9776e-009    -5.4554e-010   
  -0.42           -0.42           -7.0174e-009    -7.2876e-010   
  -0.43           -0.43           -7.919e-009     -1.00876e-009  
  -0.44           -0.44           -7.1122e-009    -1.3168e-009   
  -0.45           -0.45           -6.8686e-009    -1.7598e-009   
  -0.46           -0.46           -7.437e-009     -2.1206e-009   
  -0.47           -0.47           -7.3346e-009    -2.5996e-009   
  -0.48           -0.48           -9.1054e-009    -3.164e-009    
  -0.49           -0.49           -9.1052e-009    -3.8014e-009   
  -0.5            -0.5            -9.5742e-009    -4.5358e-009   
  -0.51           -0.51           -9.9944e-009    -5.2982e-009   
  -0.52           -0.52           -8.865e-009     -6.25e-009     
  -0.53           -0.53           -9.1274e-009    -7.3586e-009   
  -0.54           -0.54           -8.5828e-009    -8.7196e-009   
  -0.55           -0.55           -9.0782e-009    -1.01068e-008  
  -0.56           -0.56           -9.2404e-009    -1.1808e-008   
  -0.57           -0.57           -8.9404e-009    -1.3738e-008   
  -0.58           -0.58           -9.4044e-009    -1.5976e-008   
  -0.59           -0.59           -1.0585e-008    -1.8452e-008   
  -0.6            -0.6            -9.9656e-009    -2.1354e-008   
  -0.61           -0.61           -9.3688e-009    -2.4692e-008   
  -0.62           -0.62           -1.02512e-008   -2.8574e-008   
  -0.63           -0.63           -1.03226e-008   -3.282e-008    
  -0.64           -0.64           -1.01158e-008   -3.7664e-008   
  -0.65           -0.65           -1.10492e-008   -4.3174e-008   
  -0.66           -0.66           -1.05946e-008   -4.9362e-008   
  -0.67           -0.67           -1.04e-008      -5.6226e-008   
  -0.68           -0.68           -1.1296e-008    -6.4004e-008   
  -0.69           -0.69           -1.13706e-008   -7.2696e-008   
  -0.7            -0.7            -1.05798e-008   -8.2336e-008   
  -0.71           -0.71           -1.06956e-008   -9.3178e-008   
  -0.72           -0.72           -1.12056e-008   -1.0492e-007   
  -0.73           -0.73           -1.00536e-008   -1.1782e-007   
  -0.74           -0.74           -1.10124e-008   -1.321e-007    
  -0.75           -0.75           1.738e-009      -1.476e-007    
  -0.76           -0.76           -2.288e-009     -1.645e-007    
  -0.77           -0.77           -1.1009e-008    -1.8286e-007   
  -0.78           -0.78           -3.066e-009     -2.0278e-007   
  -0.79           -0.79           -1.07626e-008   -2.2426e-007   
  -0.8            -0.8            -1.10562e-008   -2.4766e-007   
END_DB

